# vsim -cvgperinstance -vopt -voptargs="+acc" -coverage -sva -c -do "log -r /*; coverage save -onexit mem_cov1; run -all; exit" -wlf inc_wave.wlf -l test1.log -sv_seed random work.top "+UVM_TESTNAME=inc_test" 
# Start time: 20:29:12 on Apr 18,2026
# ** Note: (vsim-3812) Design is being optimized...
# ** Warning: (vopt-10587) Some optimizations are turned off because the +acc switch is in effect. This will cause your simulation to run slowly. Please use -access/-debug to maintain needed visibility.
# Support of the MGLS_LICENSE_FILE and LM_LICENSE_FILE licensing environment variables will be discontinued starting with the 2025.1 release. Please update to using the SALT_LICENSE_SERVER variable.
# Please contact Siemens EDA Customer Support (https://support.sw.siemens.com/) for assistance.
# ** Note: (vsim-12126) Error and warning message counts have been restored: Errors=0, Warnings=1.
# //  Questa Sim-64
# //  Version 2024.1 win64 Feb  1 2024
# //
# // Unpublished work. Copyright 2024 Siemens
# //
# // This material contains trade secrets or otherwise confidential information
# // owned by Siemens Industry Software Inc. or its affiliates (collectively,
# // "SISW"), or its licensors. Access to and use of this information is strictly
# // limited as set forth in the Customer's applicable agreements with SISW.
# //
# // This material may not be copied, distributed, or otherwise disclosed outside
# // of the Customer's facilities without the express written permission of SISW,
# // and may not be used in any way not expressly authorized by SISW.
# //
# Loading sv_std.std
# Loading work.axi(fast)
# Loading mtiUvm.uvm_pkg(fast)
# Loading work.axi_pkg(fast)
# Loading mtiUvm.questa_uvm_pkg(fast)
# Loading work.top(fast)
# Loading work.axi(fast__2)
# Loading C:/questasim64_2024.1/uvm-1.1d\win64\uvm_dpi.dll
# ** Warning: (vsim-8634) Code was not compiled with coverage options.
# Sv_Seed = 1978898166
# log -r /*
#  coverage save -onexit mem_cov1
#  run -all
# ----------------------------------------------------------------
# UVM-1.1d
# (C) 2007-2013 Mentor Graphics Corporation
# (C) 2007-2013 Cadence Design Systems, Inc.
# (C) 2006-2013 Synopsys, Inc.
# (C) 2011-2013 Cypress Semiconductor Corp.
# ----------------------------------------------------------------
# 
#   ***********       IMPORTANT RELEASE NOTES         ************
# 
#   You are using a version of the UVM library that has been compiled
#   with `UVM_NO_DEPRECATED undefined.
#   See http://www.eda.org/svdb/view.php?id=3313 for more details.
# 
#   You are using a version of the UVM library that has been compiled
#   with `UVM_OBJECT_MUST_HAVE_CONSTRUCTOR undefined.
#   See http://www.eda.org/svdb/view.php?id=3770 for more details.
# 
#       (Specify +UVM_NO_RELNOTES to turn off this notice)
# 
# UVM_INFO verilog_src/questa_uvm_pkg-1.2/src/questa_uvm_pkg.sv(277) @ 0: reporter [Questa UVM] QUESTA_UVM-1.2.3
# UVM_INFO verilog_src/questa_uvm_pkg-1.2/src/questa_uvm_pkg.sv(278) @ 0: reporter [Questa UVM]  questa_uvm::init(+struct)
# UVM_INFO @ 0: reporter [RNTST] Running test inc_test...
# UVM_INFO @ 0: reporter [UVMTOP] UVM testbench topology:
# --------------------------------------------------------------------
# Name                         Type                        Size  Value
# --------------------------------------------------------------------
# uvm_test_top                 inc_test                    -     @474 
#   envh                       env                         -     @490 
#     m_uvc                    master_agent_top            -     @498 
#       m_agent[0]             master_agent                -     @629 
#         drvh                 master_driver               -     @656 
#           rsp_port           uvm_analysis_port           -     @671 
#           seq_item_port      uvm_seq_item_pull_port      -     @663 
#         monh                 master_monitor              -     @641 
#           analysis_port      uvm_analysis_port           -     @648 
#         seqrh                master_sequencer            -     @679 
#           rsp_export         uvm_analysis_export         -     @686 
#           seq_item_export    uvm_seq_item_pull_imp       -     @780 
#           arbitration_queue  array                       0     -    
#           lock_queue         array                       0     -    
#           num_last_reqs      integral                    32    'd1  
#           num_last_rsps      integral                    32    'd1  
#     s_uvc                    slave_agent_top             -     @505 
#       s_agent[0]             slave_agent                 -     @796 
#         drvh                 slave_driver                -     @823 
#           rsp_port           uvm_analysis_port           -     @838 
#           seq_item_port      uvm_seq_item_pull_port      -     @830 
#         monh                 slave_monitor               -     @808 
#           analysis_port      uvm_analysis_port           -     @815 
#         seqrh                slave_sequencer             -     @846 
#           rsp_export         uvm_analysis_export         -     @853 
#           seq_item_export    uvm_seq_item_pull_imp       -     @947 
#           arbitration_queue  array                       0     -    
#           lock_queue         array                       0     -    
#           num_last_reqs      integral                    32    'd1  
#           num_last_rsps      integral                    32    'd1  
#     sb                       score_board                 -     @512 
#       m_fifo[0]              uvm_tlm_analysis_fifo #(T)  -     @963 
#         analysis_export      uvm_analysis_imp            -     @1002
#         get_ap               uvm_analysis_port           -     @994 
#         get_peek_export      uvm_get_peek_imp            -     @978 
#         put_ap               uvm_analysis_port           -     @986 
#         put_export           uvm_put_imp                 -     @970 
#       s_fifo[0]              uvm_tlm_analysis_fifo #(T)  -     @1010
#         analysis_export      uvm_analysis_imp            -     @1049
#         get_ap               uvm_analysis_port           -     @1041
#         get_peek_export      uvm_get_peek_imp            -     @1025
#         put_ap               uvm_analysis_port           -     @1033
#         put_export           uvm_put_imp                 -     @1017
#     v_seqrh                  virtual_sequencer           -     @519 
#       rsp_export             uvm_analysis_export         -     @526 
#       seq_item_export        uvm_seq_item_pull_imp       -     @620 
#       arbitration_queue      array                       0     -    
#       lock_queue             array                       0     -    
#       num_last_reqs          integral                    32    'd1  
#       num_last_rsps          integral                    32    'd1  
# --------------------------------------------------------------------
# 
# UVM_INFO ../tb/score_board.sv(87) @ 405: uvm_test_top.envh.sb [score_board] master_monitor --------------------------------------
# Name        Type      Size  Value     
# --------------------------------------
# m_xtn       axi_xtn   -     @1085     
#   AWADDR    integral  32    3533219091
#   waddr[0]  integral  32    3533219091
#   waddr[1]  integral  32    3533219092
#   waddr[2]  integral  32    3533219093
#   waddr[3]  integral  32    3533219094
#   waddr[4]  integral  32    3533219095
#   AWLEN     integral  4     'd4       
#   AWSIZE    integral  3     'd0       
#   AWBURST   integral  2     'd1       
#   WDATA[0]  integral  32    'd253     
#   WDATA[1]  integral  32    'd7       
#   WDATA[2]  integral  32    'd81      
#   WDATA[3]  integral  32    'd195     
#   WDATA[4]  integral  32    'd232     
#   WSTRB[0]  integral  4     'b1000    
#   WSTRB[1]  integral  4     'b1       
#   WSTRB[2]  integral  4     'b10      
#   WSTRB[3]  integral  4     'b100     
#   WSTRB[4]  integral  4     'b1000    
#   BRESP     integral  2     'd0       
#   ARADDR    integral  32    'd0       
#   ARVALID   integral  1     'd0       
#   ARLEN     integral  4     'd0       
#   ARSIZE    integral  3     'd0       
#   ARBURST   integral  2     'd0       
#   RRESP     integral  2     'd0       
# --------------------------------------
#  slave_monitor --------------------------------------
# Name        Type      Size  Value     
# --------------------------------------
# m_xtn       axi_xtn   -     @1067     
#   AWADDR    integral  32    3533219091
#   waddr[0]  integral  32    3533219091
#   waddr[1]  integral  32    3533219092
#   waddr[2]  integral  32    3533219093
#   waddr[3]  integral  32    3533219094
#   waddr[4]  integral  32    3533219095
#   AWLEN     integral  4     'd4       
#   AWSIZE    integral  3     'd0       
#   AWBURST   integral  2     'd1       
#   WDATA[0]  integral  32    'd253     
#   WDATA[1]  integral  32    'd7       
#   WDATA[2]  integral  32    'd81      
#   WDATA[3]  integral  32    'd195     
#   WDATA[4]  integral  32    'd232     
#   WSTRB[0]  integral  4     'b1000    
#   WSTRB[1]  integral  4     'b1       
#   WSTRB[2]  integral  4     'b10      
#   WSTRB[3]  integral  4     'b100     
#   WSTRB[4]  integral  4     'b1000    
#   BRESP     integral  2     'd0       
#   ARADDR    integral  32    'd0       
#   ARVALID   integral  1     'd0       
#   ARLEN     integral  4     'd0       
#   ARSIZE    integral  3     'd0       
#   ARBURST   integral  2     'd0       
#   RRESP     integral  2     'd0       
# --------------------------------------
#  
# UVM_INFO ../tb/score_board.sv(95) @ 405: uvm_test_top.envh.sb [score_board] master and slave data matched
# UVM_INFO ../tb/score_board.sv(87) @ 685: uvm_test_top.envh.sb [score_board] master_monitor --------------------------------------
# Name        Type      Size  Value     
# --------------------------------------
# m_xtn       axi_xtn   -     @1176     
#   AWADDR    integral  32    2459548330
#   waddr[0]  integral  32    2459548330
#   waddr[1]  integral  32    2459548332
#   waddr[2]  integral  32    2459548334
#   AWLEN     integral  4     'd2       
#   AWSIZE    integral  3     'd1       
#   AWBURST   integral  2     'd1       
#   WDATA[0]  integral  32    'd24680   
#   WDATA[1]  integral  32    'd18517   
#   WDATA[2]  integral  32    'd59445   
#   WSTRB[0]  integral  4     'b1100    
#   WSTRB[1]  integral  4     'b11      
#   WSTRB[2]  integral  4     'b1100    
#   BRESP     integral  2     'd0       
#   ARADDR    integral  32    'd0       
#   ARVALID   integral  1     'd0       
#   ARLEN     integral  4     'd0       
#   ARSIZE    integral  3     'd0       
#   ARBURST   integral  2     'd0       
#   RRESP     integral  2     'd0       
# --------------------------------------
#  slave_monitor --------------------------------------
# Name        Type      Size  Value     
# --------------------------------------
# m_xtn       axi_xtn   -     @1180     
#   AWADDR    integral  32    2459548330
#   waddr[0]  integral  32    2459548330
#   waddr[1]  integral  32    2459548332
#   waddr[2]  integral  32    2459548334
#   AWLEN     integral  4     'd2       
#   AWSIZE    integral  3     'd1       
#   AWBURST   integral  2     'd1       
#   WDATA[0]  integral  32    'd24680   
#   WDATA[1]  integral  32    'd18517   
#   WDATA[2]  integral  32    'd59445   
#   WSTRB[0]  integral  4     'b1100    
#   WSTRB[1]  integral  4     'b11      
#   WSTRB[2]  integral  4     'b1100    
#   BRESP     integral  2     'd0       
#   ARADDR    integral  32    'd0       
#   ARVALID   integral  1     'd0       
#   ARLEN     integral  4     'd0       
#   ARSIZE    integral  3     'd0       
#   ARBURST   integral  2     'd0       
#   RRESP     integral  2     'd0       
# --------------------------------------
#  
# UVM_INFO ../tb/score_board.sv(95) @ 685: uvm_test_top.envh.sb [score_board] master and slave data matched
# UVM_INFO ../tb/score_board.sv(87) @ 865: uvm_test_top.envh.sb [score_board] master_monitor --------------------------------------
# Name        Type      Size  Value     
# --------------------------------------
# m_xtn       axi_xtn   -     @1213     
#   AWADDR    integral  32    3982597691
#   waddr[0]  integral  32    3982597691
#   waddr[1]  integral  32    3982597692
#   waddr[2]  integral  32    3982597693
#   AWLEN     integral  4     'd2       
#   AWSIZE    integral  3     'd0       
#   AWBURST   integral  2     'd1       
#   WDATA[0]  integral  32    'd206     
#   WDATA[1]  integral  32    'd214     
#   WDATA[2]  integral  32    'd208     
#   WSTRB[0]  integral  4     'b1000    
#   WSTRB[1]  integral  4     'b1       
#   WSTRB[2]  integral  4     'b10      
#   BRESP     integral  2     'd0       
#   ARADDR    integral  32    'd0       
#   ARVALID   integral  1     'd0       
#   ARLEN     integral  4     'd0       
#   ARSIZE    integral  3     'd0       
#   ARBURST   integral  2     'd0       
#   RRESP     integral  2     'd0       
# --------------------------------------
#  slave_monitor --------------------------------------
# Name        Type      Size  Value     
# --------------------------------------
# m_xtn       axi_xtn   -     @1217     
#   AWADDR    integral  32    3982597691
#   waddr[0]  integral  32    3982597691
#   waddr[1]  integral  32    3982597692
#   waddr[2]  integral  32    3982597693
#   AWLEN     integral  4     'd2       
#   AWSIZE    integral  3     'd0       
#   AWBURST   integral  2     'd1       
#   WDATA[0]  integral  32    'd206     
#   WDATA[1]  integral  32    'd214     
#   WDATA[2]  integral  32    'd208     
#   WSTRB[0]  integral  4     'b1000    
#   WSTRB[1]  integral  4     'b1       
#   WSTRB[2]  integral  4     'b10      
#   BRESP     integral  2     'd0       
#   ARADDR    integral  32    'd0       
#   ARVALID   integral  1     'd0       
#   ARLEN     integral  4     'd0       
#   ARSIZE    integral  3     'd0       
#   ARBURST   integral  2     'd0       
#   RRESP     integral  2     'd0       
# --------------------------------------
#  
# UVM_INFO ../tb/score_board.sv(95) @ 865: uvm_test_top.envh.sb [score_board] master and slave data matched
# UVM_INFO ../tb/score_board.sv(87) @ 995: uvm_test_top.envh.sb [score_board] master_monitor --------------------------------------
# Name        Type      Size  Value     
# --------------------------------------
# m_xtn       axi_xtn   -     @1237     
#   AWADDR    integral  32    2164941050
#   waddr[0]  integral  32    2164941050
#   waddr[1]  integral  32    2164941051
#   AWLEN     integral  4     'd1       
#   AWSIZE    integral  3     'd0       
#   AWBURST   integral  2     'd1       
#   WDATA[0]  integral  32    'd52      
#   WDATA[1]  integral  32    'd42      
#   WSTRB[0]  integral  4     'b100     
#   WSTRB[1]  integral  4     'b1000    
#   BRESP     integral  2     'd0       
#   ARADDR    integral  32    'd0       
#   ARVALID   integral  1     'd0       
#   ARLEN     integral  4     'd0       
#   ARSIZE    integral  3     'd0       
#   ARBURST   integral  2     'd0       
#   RRESP     integral  2     'd0       
# --------------------------------------
#  slave_monitor --------------------------------------
# Name        Type      Size  Value     
# --------------------------------------
# m_xtn       axi_xtn   -     @1241     
#   AWADDR    integral  32    2164941050
#   waddr[0]  integral  32    2164941050
#   waddr[1]  integral  32    2164941051
#   AWLEN     integral  4     'd1       
#   AWSIZE    integral  3     'd0       
#   AWBURST   integral  2     'd1       
#   WDATA[0]  integral  32    'd52      
#   WDATA[1]  integral  32    'd42      
#   WSTRB[0]  integral  4     'b100     
#   WSTRB[1]  integral  4     'b1000    
#   BRESP     integral  2     'd0       
#   ARADDR    integral  32    'd0       
#   ARVALID   integral  1     'd0       
#   ARLEN     integral  4     'd0       
#   ARSIZE    integral  3     'd0       
#   ARBURST   integral  2     'd0       
#   RRESP     integral  2     'd0       
# --------------------------------------
#  
# UVM_INFO ../tb/score_board.sv(95) @ 995: uvm_test_top.envh.sb [score_board] master and slave data matched
# UVM_INFO ../tb/score_board.sv(87) @ 1045: uvm_test_top.envh.sb [score_board] master_monitor -----------------------------------------
# Name         Type      Size  Value       
# -----------------------------------------
# rxtn         axi_xtn   -     @1089       
#   AWADDR     integral  32    'd0         
#   AWLEN      integral  4     'd0         
#   AWSIZE     integral  3     'd0         
#   AWBURST    integral  2     'd0         
#   BRESP      integral  2     'd0         
#   ARADDR     integral  32    'd2038335214
#   raddr[0]   integral  32    'd2038335214
#   raddr[1]   integral  32    'd2038335215
#   raddr[2]   integral  32    'd2038335216
#   raddr[3]   integral  32    'd2038335217
#   raddr[4]   integral  32    'd2038335218
#   raddr[5]   integral  32    'd2038335219
#   raddr[6]   integral  32    'd2038335220
#   raddr[7]   integral  32    'd2038335221
#   raddr[8]   integral  32    'd2038335222
#   raddr[9]   integral  32    'd2038335223
#   raddr[10]  integral  32    'd2038335224
#   raddr[11]  integral  32    'd2038335225
#   raddr[12]  integral  32    'd2038335226
#   raddr[13]  integral  32    'd2038335227
#   ARVALID    integral  1     1           
#   ARLEN      integral  4     13          
#   ARSIZE     integral  3     'd0         
#   ARBURST    integral  2     'd1         
#   RDATA[0]   integral  32    'd21        
#   RDATA[1]   integral  32    'd192       
#   RDATA[2]   integral  32    'd9         
#   RDATA[3]   integral  32    'd86        
#   RDATA[4]   integral  32    'd185       
#   RDATA[5]   integral  32    'd70        
#   RDATA[6]   integral  32    'd101       
#   RDATA[7]   integral  32    'd82        
#   RDATA[8]   integral  32    'd243       
#   RDATA[9]   integral  32    'd6         
#   RDATA[10]  integral  32    'd118       
#   RDATA[11]  integral  32    'd205       
#   RDATA[12]  integral  32    'd212       
#   RDATA[13]  integral  32    'd70        
#   RRESP      integral  2     'd0         
# -----------------------------------------
#  slave_monitor -----------------------------------------
# Name         Type      Size  Value       
# -----------------------------------------
# rxtn         axi_xtn   -     @1071       
#   AWADDR     integral  32    'd0         
#   AWLEN      integral  4     'd0         
#   AWSIZE     integral  3     'd0         
#   AWBURST    integral  2     'd0         
#   BRESP      integral  2     'd0         
#   ARADDR     integral  32    'd2038335214
#   raddr[0]   integral  32    'd2038335214
#   raddr[1]   integral  32    'd2038335215
#   raddr[2]   integral  32    'd2038335216
#   raddr[3]   integral  32    'd2038335217
#   raddr[4]   integral  32    'd2038335218
#   raddr[5]   integral  32    'd2038335219
#   raddr[6]   integral  32    'd2038335220
#   raddr[7]   integral  32    'd2038335221
#   raddr[8]   integral  32    'd2038335222
#   raddr[9]   integral  32    'd2038335223
#   raddr[10]  integral  32    'd2038335224
#   raddr[11]  integral  32    'd2038335225
#   raddr[12]  integral  32    'd2038335226
#   raddr[13]  integral  32    'd2038335227
#   ARVALID    integral  1     1           
#   ARLEN      integral  4     13          
#   ARSIZE     integral  3     'd0         
#   ARBURST    integral  2     'd1         
#   RDATA[0]   integral  32    'd21        
#   RDATA[1]   integral  32    'd192       
#   RDATA[2]   integral  32    'd9         
#   RDATA[3]   integral  32    'd86        
#   RDATA[4]   integral  32    'd185       
#   RDATA[5]   integral  32    'd70        
#   RDATA[6]   integral  32    'd101       
#   RDATA[7]   integral  32    'd82        
#   RDATA[8]   integral  32    'd243       
#   RDATA[9]   integral  32    'd6         
#   RDATA[10]  integral  32    'd118       
#   RDATA[11]  integral  32    'd205       
#   RDATA[12]  integral  32    'd212       
#   RDATA[13]  integral  32    'd70        
#   RRESP      integral  2     'd0         
# -----------------------------------------
#  
# UVM_INFO ../tb/score_board.sv(95) @ 1045: uvm_test_top.envh.sb [score_board] master and slave data matched
# UVM_INFO ../tb/score_board.sv(87) @ 1125: uvm_test_top.envh.sb [score_board] master_monitor ----------------------------------------
# Name        Type      Size  Value       
# ----------------------------------------
# m_xtn       axi_xtn   -     @1265       
#   AWADDR    integral  32    'd1641363990
#   waddr[0]  integral  32    'd1641363990
#   waddr[1]  integral  32    'd1641363991
#   waddr[2]  integral  32    'd1641363992
#   AWLEN     integral  4     'd2         
#   AWSIZE    integral  3     'd0         
#   AWBURST   integral  2     'd1         
#   WDATA[0]  integral  32    'd132       
#   WDATA[1]  integral  32    'd67        
#   WDATA[2]  integral  32    'd249       
#   WSTRB[0]  integral  4     'b100       
#   WSTRB[1]  integral  4     'b1000      
#   WSTRB[2]  integral  4     'b1         
#   BRESP     integral  2     'd0         
#   ARADDR    integral  32    'd0         
#   ARVALID   integral  1     'd0         
#   ARLEN     integral  4     'd0         
#   ARSIZE    integral  3     'd0         
#   ARBURST   integral  2     'd0         
#   RRESP     integral  2     'd0         
# ----------------------------------------
#  slave_monitor ----------------------------------------
# Name        Type      Size  Value       
# ----------------------------------------
# m_xtn       axi_xtn   -     @1269       
#   AWADDR    integral  32    'd1641363990
#   waddr[0]  integral  32    'd1641363990
#   waddr[1]  integral  32    'd1641363991
#   waddr[2]  integral  32    'd1641363992
#   AWLEN     integral  4     'd2         
#   AWSIZE    integral  3     'd0         
#   AWBURST   integral  2     'd1         
#   WDATA[0]  integral  32    'd132       
#   WDATA[1]  integral  32    'd67        
#   WDATA[2]  integral  32    'd249       
#   WSTRB[0]  integral  4     'b100       
#   WSTRB[1]  integral  4     'b1000      
#   WSTRB[2]  integral  4     'b1         
#   BRESP     integral  2     'd0         
#   ARADDR    integral  32    'd0         
#   ARVALID   integral  1     'd0         
#   ARLEN     integral  4     'd0         
#   ARSIZE    integral  3     'd0         
#   ARBURST   integral  2     'd0         
#   RRESP     integral  2     'd0         
# ----------------------------------------
#  
# UVM_INFO ../tb/score_board.sv(95) @ 1125: uvm_test_top.envh.sb [score_board] master and slave data matched
# UVM_INFO ../tb/score_board.sv(87) @ 1125: uvm_test_top.envh.sb [score_board] master_monitor ---------------------------------
# Name        Type      Size  Value
# ---------------------------------
# rxtn        axi_xtn   -     @1184
#   AWADDR    integral  32    'd0  
#   AWLEN     integral  4     'd0  
#   AWSIZE    integral  3     'd0  
#   AWBURST   integral  2     'd0  
#   BRESP     integral  2     'd0  
#   ARADDR    integral  32    'd0  
#   raddr[0]  integral  32    'd0  
#   ARVALID   integral  1     'd0  
#   ARLEN     integral  4     'd0  
#   ARSIZE    integral  3     'd0  
#   ARBURST   integral  2     'd0  
#   RDATA[0]  integral  32    'd249
#   RRESP     integral  2     'd0  
# ---------------------------------
#  slave_monitor ---------------------------------
# Name        Type      Size  Value
# ---------------------------------
# rxtn        axi_xtn   -     @1188
#   AWADDR    integral  32    'd0  
#   AWLEN     integral  4     'd0  
#   AWSIZE    integral  3     'd0  
#   AWBURST   integral  2     'd0  
#   BRESP     integral  2     'd0  
#   ARADDR    integral  32    'd0  
#   raddr[0]  integral  32    'd0  
#   ARVALID   integral  1     'd0  
#   ARLEN     integral  4     'd0  
#   ARSIZE    integral  3     'd0  
#   ARBURST   integral  2     'd0  
#   RDATA[0]  integral  32    'd249
#   RRESP     integral  2     'd0  
# ---------------------------------
#  
# UVM_INFO ../tb/score_board.sv(95) @ 1125: uvm_test_top.envh.sb [score_board] master and slave data matched
# UVM_INFO ../tb/score_board.sv(87) @ 1185: uvm_test_top.envh.sb [score_board] master_monitor --------------------------------------
# Name        Type      Size  Value     
# --------------------------------------
# rxtn        axi_xtn   -     @1205     
#   AWADDR    integral  32    'd0       
#   AWLEN     integral  4     'd0       
#   AWSIZE    integral  3     'd0       
#   AWBURST   integral  2     'd0       
#   BRESP     integral  2     'd0       
#   ARADDR    integral  32    3295060185
#   raddr[0]  integral  32    3295060185
#   ARVALID   integral  1     1         
#   ARLEN     integral  4     'd0       
#   ARSIZE    integral  3     'd0       
#   ARBURST   integral  2     'd1       
#   RDATA[0]  integral  32    'd36      
#   RRESP     integral  2     'd0       
# --------------------------------------
#  slave_monitor --------------------------------------
# Name        Type      Size  Value     
# --------------------------------------
# rxtn        axi_xtn   -     @1209     
#   AWADDR    integral  32    'd0       
#   AWLEN     integral  4     'd0       
#   AWSIZE    integral  3     'd0       
#   AWBURST   integral  2     'd0       
#   BRESP     integral  2     'd0       
#   ARADDR    integral  32    3295060185
#   raddr[0]  integral  32    3295060185
#   ARVALID   integral  1     1         
#   ARLEN     integral  4     'd0       
#   ARSIZE    integral  3     'd0       
#   ARBURST   integral  2     'd1       
#   RDATA[0]  integral  32    'd36      
#   RRESP     integral  2     'd0       
# --------------------------------------
#  
# UVM_INFO ../tb/score_board.sv(95) @ 1185: uvm_test_top.envh.sb [score_board] master and slave data matched
# UVM_INFO ../tb/score_board.sv(87) @ 2005: uvm_test_top.envh.sb [score_board] master_monitor -----------------------------------------
# Name         Type      Size  Value       
# -----------------------------------------
# rxtn         axi_xtn   -     @1229       
#   AWADDR     integral  32    'd0         
#   AWLEN      integral  4     'd0         
#   AWSIZE     integral  3     'd0         
#   AWBURST    integral  2     'd0         
#   BRESP      integral  2     'd0         
#   ARADDR     integral  32    'd1461790726
#   raddr[0]   integral  32    'd1461790726
#   raddr[1]   integral  32    'd1461790727
#   raddr[2]   integral  32    'd1461790728
#   raddr[3]   integral  32    'd1461790729
#   raddr[4]   integral  32    'd1461790730
#   raddr[5]   integral  32    'd1461790731
#   raddr[6]   integral  32    'd1461790732
#   raddr[7]   integral  32    'd1461790733
#   raddr[8]   integral  32    'd1461790734
#   raddr[9]   integral  32    'd1461790735
#   raddr[10]  integral  32    'd1461790736
#   raddr[11]  integral  32    'd1461790737
#   raddr[12]  integral  32    'd1461790738
#   ARVALID    integral  1     1           
#   ARLEN      integral  4     12          
#   ARSIZE     integral  3     'd0         
#   ARBURST    integral  2     'd1         
#   RDATA[0]   integral  32    'd247       
#   RDATA[1]   integral  32    'd213       
#   RDATA[2]   integral  32    'd229       
#   RDATA[3]   integral  32    'd114       
#   RDATA[4]   integral  32    'd50        
#   RDATA[5]   integral  32    'd71        
#   RDATA[6]   integral  32    'd242       
#   RDATA[7]   integral  32    'd150       
#   RDATA[8]   integral  32    'd0         
#   RDATA[9]   integral  32    'd226       
#   RDATA[10]  integral  32    'd92        
#   RDATA[11]  integral  32    'd40        
#   RDATA[12]  integral  32    'd171       
#   RRESP      integral  2     'd0         
# -----------------------------------------
#  slave_monitor -----------------------------------------
# Name         Type      Size  Value       
# -----------------------------------------
# rxtn         axi_xtn   -     @1233       
#   AWADDR     integral  32    'd0         
#   AWLEN      integral  4     'd0         
#   AWSIZE     integral  3     'd0         
#   AWBURST    integral  2     'd0         
#   BRESP      integral  2     'd0         
#   ARADDR     integral  32    'd1461790726
#   raddr[0]   integral  32    'd1461790726
#   raddr[1]   integral  32    'd1461790727
#   raddr[2]   integral  32    'd1461790728
#   raddr[3]   integral  32    'd1461790729
#   raddr[4]   integral  32    'd1461790730
#   raddr[5]   integral  32    'd1461790731
#   raddr[6]   integral  32    'd1461790732
#   raddr[7]   integral  32    'd1461790733
#   raddr[8]   integral  32    'd1461790734
#   raddr[9]   integral  32    'd1461790735
#   raddr[10]  integral  32    'd1461790736
#   raddr[11]  integral  32    'd1461790737
#   raddr[12]  integral  32    'd1461790738
#   ARVALID    integral  1     1           
#   ARLEN      integral  4     12          
#   ARSIZE     integral  3     'd0         
#   ARBURST    integral  2     'd1         
#   RDATA[0]   integral  32    'd247       
#   RDATA[1]   integral  32    'd213       
#   RDATA[2]   integral  32    'd229       
#   RDATA[3]   integral  32    'd114       
#   RDATA[4]   integral  32    'd50        
#   RDATA[5]   integral  32    'd71        
#   RDATA[6]   integral  32    'd242       
#   RDATA[7]   integral  32    'd150       
#   RDATA[8]   integral  32    'd0         
#   RDATA[9]   integral  32    'd226       
#   RDATA[10]  integral  32    'd92        
#   RDATA[11]  integral  32    'd40        
#   RDATA[12]  integral  32    'd171       
#   RRESP      integral  2     'd0         
# -----------------------------------------
#  
# UVM_INFO ../tb/score_board.sv(95) @ 2005: uvm_test_top.envh.sb [score_board] master and slave data matched
# UVM_INFO ../tb/score_board.sv(87) @ 2025: uvm_test_top.envh.sb [score_board] master_monitor ---------------------------------------
# Name         Type      Size  Value     
# ---------------------------------------
# m_xtn        axi_xtn   -     @1293     
#   AWADDR     integral  32    3889197202
#   waddr[0]   integral  32    3889197202
#   waddr[1]   integral  32    3889197204
#   waddr[2]   integral  32    3889197206
#   waddr[3]   integral  32    3889197208
#   waddr[4]   integral  32    3889197210
#   waddr[5]   integral  32    3889197212
#   waddr[6]   integral  32    3889197214
#   waddr[7]   integral  32    3889197216
#   waddr[8]   integral  32    3889197218
#   waddr[9]   integral  32    3889197220
#   waddr[10]  integral  32    3889197222
#   waddr[11]  integral  32    3889197224
#   waddr[12]  integral  32    3889197226
#   waddr[13]  integral  32    3889197228
#   AWLEN      integral  4     13        
#   AWSIZE     integral  3     'd1       
#   AWBURST    integral  2     'd1       
#   WDATA[0]   integral  32    'd37819   
#   WDATA[1]   integral  32    'd42687   
#   WDATA[2]   integral  32    'd10887   
#   WDATA[3]   integral  32    'd21987   
#   WDATA[4]   integral  32    'd24123   
#   WDATA[5]   integral  32    'd37704   
#   WDATA[6]   integral  32    'd39675   
#   WDATA[7]   integral  32    'd13373   
#   WDATA[8]   integral  32    'd64420   
#   WDATA[9]   integral  32    'd23063   
#   WDATA[10]  integral  32    'd16432   
#   WDATA[11]  integral  32    'd21818   
#   WDATA[12]  integral  32    'd44161   
#   WDATA[13]  integral  32    'd62396   
#   WSTRB[0]   integral  4     'b1100    
#   WSTRB[1]   integral  4     'b11      
#   WSTRB[2]   integral  4     'b1100    
#   WSTRB[3]   integral  4     'b11      
#   WSTRB[4]   integral  4     'b1100    
#   WSTRB[5]   integral  4     'b11      
#   WSTRB[6]   integral  4     'b1100    
#   WSTRB[7]   integral  4     'b11      
#   WSTRB[8]   integral  4     'b1100    
#   WSTRB[9]   integral  4     'b11      
#   WSTRB[10]  integral  4     'b1100    
#   WSTRB[11]  integral  4     'b11      
#   WSTRB[12]  integral  4     'b1100    
#   WSTRB[13]  integral  4     'b11      
#   BRESP      integral  2     'd0       
#   ARADDR     integral  32    'd0       
#   ARVALID    integral  1     'd0       
#   ARLEN      integral  4     'd0       
#   ARSIZE     integral  3     'd0       
#   ARBURST    integral  2     'd0       
#   RRESP      integral  2     'd0       
# ---------------------------------------
#  slave_monitor ---------------------------------------
# Name         Type      Size  Value     
# ---------------------------------------
# m_xtn        axi_xtn   -     @1297     
#   AWADDR     integral  32    3889197202
#   waddr[0]   integral  32    3889197202
#   waddr[1]   integral  32    3889197204
#   waddr[2]   integral  32    3889197206
#   waddr[3]   integral  32    3889197208
#   waddr[4]   integral  32    3889197210
#   waddr[5]   integral  32    3889197212
#   waddr[6]   integral  32    3889197214
#   waddr[7]   integral  32    3889197216
#   waddr[8]   integral  32    3889197218
#   waddr[9]   integral  32    3889197220
#   waddr[10]  integral  32    3889197222
#   waddr[11]  integral  32    3889197224
#   waddr[12]  integral  32    3889197226
#   waddr[13]  integral  32    3889197228
#   AWLEN      integral  4     13        
#   AWSIZE     integral  3     'd1       
#   AWBURST    integral  2     'd1       
#   WDATA[0]   integral  32    'd37819   
#   WDATA[1]   integral  32    'd42687   
#   WDATA[2]   integral  32    'd10887   
#   WDATA[3]   integral  32    'd21987   
#   WDATA[4]   integral  32    'd24123   
#   WDATA[5]   integral  32    'd37704   
#   WDATA[6]   integral  32    'd39675   
#   WDATA[7]   integral  32    'd13373   
#   WDATA[8]   integral  32    'd64420   
#   WDATA[9]   integral  32    'd23063   
#   WDATA[10]  integral  32    'd16432   
#   WDATA[11]  integral  32    'd21818   
#   WDATA[12]  integral  32    'd44161   
#   WDATA[13]  integral  32    'd62396   
#   WSTRB[0]   integral  4     'b1100    
#   WSTRB[1]   integral  4     'b11      
#   WSTRB[2]   integral  4     'b1100    
#   WSTRB[3]   integral  4     'b11      
#   WSTRB[4]   integral  4     'b1100    
#   WSTRB[5]   integral  4     'b11      
#   WSTRB[6]   integral  4     'b1100    
#   WSTRB[7]   integral  4     'b11      
#   WSTRB[8]   integral  4     'b1100    
#   WSTRB[9]   integral  4     'b11      
#   WSTRB[10]  integral  4     'b1100    
#   WSTRB[11]  integral  4     'b11      
#   WSTRB[12]  integral  4     'b1100    
#   WSTRB[13]  integral  4     'b11      
#   BRESP      integral  2     'd0       
#   ARADDR     integral  32    'd0       
#   ARVALID    integral  1     'd0       
#   ARLEN      integral  4     'd0       
#   ARSIZE     integral  3     'd0       
#   ARBURST    integral  2     'd0       
#   RRESP      integral  2     'd0       
# ---------------------------------------
#  
# UVM_INFO ../tb/score_board.sv(95) @ 2025: uvm_test_top.envh.sb [score_board] master and slave data matched
# UVM_INFO ../tb/score_board.sv(87) @ 2055: uvm_test_top.envh.sb [score_board] master_monitor ---------------------------------
# Name        Type      Size  Value
# ---------------------------------
# rxtn        axi_xtn   -     @1257
#   AWADDR    integral  32    'd0  
#   AWLEN     integral  4     'd0  
#   AWSIZE    integral  3     'd0  
#   AWBURST   integral  2     'd0  
#   BRESP     integral  2     'd0  
#   ARADDR    integral  32    'd0  
#   raddr[0]  integral  32    'd0  
#   ARVALID   integral  1     'd0  
#   ARLEN     integral  4     'd0  
#   ARSIZE    integral  3     'd0  
#   ARBURST   integral  2     'd0  
#   RDATA[0]  integral  32    'd101
#   RRESP     integral  2     'd0  
# ---------------------------------
#  slave_monitor ---------------------------------
# Name        Type      Size  Value
# ---------------------------------
# rxtn        axi_xtn   -     @1261
#   AWADDR    integral  32    'd0  
#   AWLEN     integral  4     'd0  
#   AWSIZE    integral  3     'd0  
#   AWBURST   integral  2     'd0  
#   BRESP     integral  2     'd0  
#   ARADDR    integral  32    'd0  
#   raddr[0]  integral  32    'd0  
#   ARVALID   integral  1     'd0  
#   ARLEN     integral  4     'd0  
#   ARSIZE    integral  3     'd0  
#   ARBURST   integral  2     'd0  
#   RDATA[0]  integral  32    'd101
#   RRESP     integral  2     'd0  
# ---------------------------------
#  
# UVM_INFO ../tb/score_board.sv(95) @ 2055: uvm_test_top.envh.sb [score_board] master and slave data matched
# UVM_INFO ../tb/score_board.sv(87) @ 2585: uvm_test_top.envh.sb [score_board] master_monitor ----------------------------------------
# Name        Type      Size  Value       
# ----------------------------------------
# rxtn        axi_xtn   -     @1285       
#   AWADDR    integral  32    'd0         
#   AWLEN     integral  4     'd0         
#   AWSIZE    integral  3     'd0         
#   AWBURST   integral  2     'd0         
#   BRESP     integral  2     'd0         
#   ARADDR    integral  32    2609789632  
#   raddr[0]  integral  32    2609789632  
#   raddr[1]  integral  32    2609789636  
#   raddr[2]  integral  32    2609789640  
#   raddr[3]  integral  32    2609789644  
#   raddr[4]  integral  32    2609789648  
#   raddr[5]  integral  32    2609789652  
#   raddr[6]  integral  32    2609789656  
#   raddr[7]  integral  32    2609789660  
#   ARVALID   integral  1     1           
#   ARLEN     integral  4     'd7         
#   ARSIZE    integral  3     'd2         
#   ARBURST   integral  2     'd1         
#   RDATA[0]  integral  32    2985255523  
#   RDATA[1]  integral  32    'd91457290  
#   RDATA[2]  integral  32    3225100928  
#   RDATA[3]  integral  32    'd274997536 
#   RDATA[4]  integral  32    'd1433945514
#   RDATA[5]  integral  32    3469528221  
#   RDATA[6]  integral  32    3407888022  
#   RDATA[7]  integral  32    2307110931  
#   RRESP     integral  2     'd0         
# ----------------------------------------
#  slave_monitor ----------------------------------------
# Name        Type      Size  Value       
# ----------------------------------------
# rxtn        axi_xtn   -     @1289       
#   AWADDR    integral  32    'd0         
#   AWLEN     integral  4     'd0         
#   AWSIZE    integral  3     'd0         
#   AWBURST   integral  2     'd0         
#   BRESP     integral  2     'd0         
#   ARADDR    integral  32    2609789632  
#   raddr[0]  integral  32    2609789632  
#   raddr[1]  integral  32    2609789636  
#   raddr[2]  integral  32    2609789640  
#   raddr[3]  integral  32    2609789644  
#   raddr[4]  integral  32    2609789648  
#   raddr[5]  integral  32    2609789652  
#   raddr[6]  integral  32    2609789656  
#   raddr[7]  integral  32    2609789660  
#   ARVALID   integral  1     1           
#   ARLEN     integral  4     'd7         
#   ARSIZE    integral  3     'd2         
#   ARBURST   integral  2     'd1         
#   RDATA[0]  integral  32    2985255523  
#   RDATA[1]  integral  32    'd91457290  
#   RDATA[2]  integral  32    3225100928  
#   RDATA[3]  integral  32    'd274997536 
#   RDATA[4]  integral  32    'd1433945514
#   RDATA[5]  integral  32    3469528221  
#   RDATA[6]  integral  32    3407888022  
#   RDATA[7]  integral  32    2307110931  
#   RRESP     integral  2     'd0         
# ----------------------------------------
#  
# UVM_INFO ../tb/score_board.sv(95) @ 2585: uvm_test_top.envh.sb [score_board] master and slave data matched
# UVM_INFO ../tb/score_board.sv(87) @ 3075: uvm_test_top.envh.sb [score_board] master_monitor ----------------------------------------
# Name        Type      Size  Value       
# ----------------------------------------
# rxtn        axi_xtn   -     @1317       
#   AWADDR    integral  32    'd0         
#   AWLEN     integral  4     'd0         
#   AWSIZE    integral  3     'd0         
#   AWBURST   integral  2     'd0         
#   BRESP     integral  2     'd0         
#   ARADDR    integral  32    'd1440127904
#   raddr[0]  integral  32    'd1440127904
#   raddr[1]  integral  32    'd1440127906
#   raddr[2]  integral  32    'd1440127908
#   raddr[3]  integral  32    'd1440127910
#   raddr[4]  integral  32    'd1440127912
#   raddr[5]  integral  32    'd1440127914
#   raddr[6]  integral  32    'd1440127916
#   ARVALID   integral  1     1           
#   ARLEN     integral  4     'd6         
#   ARSIZE    integral  3     'd1         
#   ARBURST   integral  2     'd1         
#   RDATA[0]  integral  32    'd14349     
#   RDATA[1]  integral  32    'd43431     
#   RDATA[2]  integral  32    'd56683     
#   RDATA[3]  integral  32    'd60070     
#   RDATA[4]  integral  32    'd18946     
#   RDATA[5]  integral  32    'd55126     
#   RDATA[6]  integral  32    'd59677     
#   RRESP     integral  2     'd0         
# ----------------------------------------
#  slave_monitor ----------------------------------------
# Name        Type      Size  Value       
# ----------------------------------------
# rxtn        axi_xtn   -     @1321       
#   AWADDR    integral  32    'd0         
#   AWLEN     integral  4     'd0         
#   AWSIZE    integral  3     'd0         
#   AWBURST   integral  2     'd0         
#   BRESP     integral  2     'd0         
#   ARADDR    integral  32    'd1440127904
#   raddr[0]  integral  32    'd1440127904
#   raddr[1]  integral  32    'd1440127906
#   raddr[2]  integral  32    'd1440127908
#   raddr[3]  integral  32    'd1440127910
#   raddr[4]  integral  32    'd1440127912
#   raddr[5]  integral  32    'd1440127914
#   raddr[6]  integral  32    'd1440127916
#   ARVALID   integral  1     1           
#   ARLEN     integral  4     'd6         
#   ARSIZE    integral  3     'd1         
#   ARBURST   integral  2     'd1         
#   RDATA[0]  integral  32    'd14349     
#   RDATA[1]  integral  32    'd43431     
#   RDATA[2]  integral  32    'd56683     
#   RDATA[3]  integral  32    'd60070     
#   RDATA[4]  integral  32    'd18946     
#   RDATA[5]  integral  32    'd55126     
#   RDATA[6]  integral  32    'd59677     
#   RRESP     integral  2     'd0         
# ----------------------------------------
#  
# UVM_INFO ../tb/score_board.sv(95) @ 3075: uvm_test_top.envh.sb [score_board] master and slave data matched
# UVM_INFO ../tb/score_board.sv(87) @ 3125: uvm_test_top.envh.sb [score_board] master_monitor -----------------------------------------
# Name         Type      Size  Value       
# -----------------------------------------
# m_xtn        axi_xtn   -     @1309       
#   AWADDR     integral  32    'd1214636571
#   waddr[0]   integral  32    'd1214636571
#   waddr[1]   integral  32    'd1214636572
#   waddr[2]   integral  32    'd1214636576
#   waddr[3]   integral  32    'd1214636580
#   waddr[4]   integral  32    'd1214636584
#   waddr[5]   integral  32    'd1214636588
#   waddr[6]   integral  32    'd1214636592
#   waddr[7]   integral  32    'd1214636596
#   waddr[8]   integral  32    'd1214636600
#   waddr[9]   integral  32    'd1214636604
#   waddr[10]  integral  32    'd1214636608
#   waddr[11]  integral  32    'd1214636612
#   waddr[12]  integral  32    'd1214636616
#   waddr[13]  integral  32    'd1214636620
#   waddr[14]  integral  32    'd1214636624
#   waddr[15]  integral  32    'd1214636628
#   AWLEN      integral  4     15          
#   AWSIZE     integral  3     'd2         
#   AWBURST    integral  2     'd1         
#   WDATA[0]   integral  32    'd30        
#   WDATA[1]   integral  32    4103402117  
#   WDATA[2]   integral  32    'd1298934995
#   WDATA[3]   integral  32    'd926641140 
#   WDATA[4]   integral  32    3832538470  
#   WDATA[5]   integral  32    'd216294119 
#   WDATA[6]   integral  32    'd567883779 
#   WDATA[7]   integral  32    3066336108  
#   WDATA[8]   integral  32    'd939721452 
#   WDATA[9]   integral  32    3153735583  
#   WDATA[10]  integral  32    'd1033179   
#   WDATA[11]  integral  32    4210636172  
#   WDATA[12]  integral  32    2657917403  
#   WDATA[13]  integral  32    'd927559608 
#   WDATA[14]  integral  32    4273927984  
#   WDATA[15]  integral  32    'd130417594 
#   WSTRB[0]   integral  4     'b1000      
#   WSTRB[1]   integral  4     'b1111      
#   WSTRB[2]   integral  4     'b1111      
#   WSTRB[3]   integral  4     'b1111      
#   WSTRB[4]   integral  4     'b1111      
#   WSTRB[5]   integral  4     'b1111      
#   WSTRB[6]   integral  4     'b1111      
#   WSTRB[7]   integral  4     'b1111      
#   WSTRB[8]   integral  4     'b1111      
#   WSTRB[9]   integral  4     'b1111      
#   WSTRB[10]  integral  4     'b1111      
#   WSTRB[11]  integral  4     'b1111      
#   WSTRB[12]  integral  4     'b1111      
#   WSTRB[13]  integral  4     'b1111      
#   WSTRB[14]  integral  4     'b1111      
#   WSTRB[15]  integral  4     'b1111      
#   BRESP      integral  2     'd0         
#   ARADDR     integral  32    'd0         
#   ARVALID    integral  1     'd0         
#   ARLEN      integral  4     'd0         
#   ARSIZE     integral  3     'd0         
#   ARBURST    integral  2     'd0         
#   RRESP      integral  2     'd0         
# -----------------------------------------
#  slave_monitor -----------------------------------------
# Name         Type      Size  Value       
# -----------------------------------------
# m_xtn        axi_xtn   -     @1313       
#   AWADDR     integral  32    'd1214636571
#   waddr[0]   integral  32    'd1214636571
#   waddr[1]   integral  32    'd1214636572
#   waddr[2]   integral  32    'd1214636576
#   waddr[3]   integral  32    'd1214636580
#   waddr[4]   integral  32    'd1214636584
#   waddr[5]   integral  32    'd1214636588
#   waddr[6]   integral  32    'd1214636592
#   waddr[7]   integral  32    'd1214636596
#   waddr[8]   integral  32    'd1214636600
#   waddr[9]   integral  32    'd1214636604
#   waddr[10]  integral  32    'd1214636608
#   waddr[11]  integral  32    'd1214636612
#   waddr[12]  integral  32    'd1214636616
#   waddr[13]  integral  32    'd1214636620
#   waddr[14]  integral  32    'd1214636624
#   waddr[15]  integral  32    'd1214636628
#   AWLEN      integral  4     15          
#   AWSIZE     integral  3     'd2         
#   AWBURST    integral  2     'd1         
#   WDATA[0]   integral  32    'd30        
#   WDATA[1]   integral  32    4103402117  
#   WDATA[2]   integral  32    'd1298934995
#   WDATA[3]   integral  32    'd926641140 
#   WDATA[4]   integral  32    3832538470  
#   WDATA[5]   integral  32    'd216294119 
#   WDATA[6]   integral  32    'd567883779 
#   WDATA[7]   integral  32    3066336108  
#   WDATA[8]   integral  32    'd939721452 
#   WDATA[9]   integral  32    3153735583  
#   WDATA[10]  integral  32    'd1033179   
#   WDATA[11]  integral  32    4210636172  
#   WDATA[12]  integral  32    2657917403  
#   WDATA[13]  integral  32    'd927559608 
#   WDATA[14]  integral  32    4273927984  
#   WDATA[15]  integral  32    'd130417594 
#   WSTRB[0]   integral  4     'b1000      
#   WSTRB[1]   integral  4     'b1111      
#   WSTRB[2]   integral  4     'b1111      
#   WSTRB[3]   integral  4     'b1111      
#   WSTRB[4]   integral  4     'b1111      
#   WSTRB[5]   integral  4     'b1111      
#   WSTRB[6]   integral  4     'b1111      
#   WSTRB[7]   integral  4     'b1111      
#   WSTRB[8]   integral  4     'b1111      
#   WSTRB[9]   integral  4     'b1111      
#   WSTRB[10]  integral  4     'b1111      
#   WSTRB[11]  integral  4     'b1111      
#   WSTRB[12]  integral  4     'b1111      
#   WSTRB[13]  integral  4     'b1111      
#   WSTRB[14]  integral  4     'b1111      
#   WSTRB[15]  integral  4     'b1111      
#   BRESP      integral  2     'd0         
#   ARADDR     integral  32    'd0         
#   ARVALID    integral  1     'd0         
#   ARLEN      integral  4     'd0         
#   ARSIZE     integral  3     'd0         
#   ARBURST    integral  2     'd0         
#   RRESP      integral  2     'd0         
# -----------------------------------------
#  
# UVM_INFO ../tb/score_board.sv(95) @ 3125: uvm_test_top.envh.sb [score_board] master and slave data matched
# UVM_INFO ../tb/score_board.sv(87) @ 3795: uvm_test_top.envh.sb [score_board] master_monitor ---------------------------------------
# Name         Type      Size  Value     
# ---------------------------------------
# rxtn         axi_xtn   -     @1337     
#   AWADDR     integral  32    'd0       
#   AWLEN      integral  4     'd0       
#   AWSIZE     integral  3     'd0       
#   AWBURST    integral  2     'd0       
#   BRESP      integral  2     'd0       
#   ARADDR     integral  32    'd90553122
#   raddr[0]   integral  32    'd90553122
#   raddr[1]   integral  32    'd90553124
#   raddr[2]   integral  32    'd90553126
#   raddr[3]   integral  32    'd90553128
#   raddr[4]   integral  32    'd90553130
#   raddr[5]   integral  32    'd90553132
#   raddr[6]   integral  32    'd90553134
#   raddr[7]   integral  32    'd90553136
#   raddr[8]   integral  32    'd90553138
#   raddr[9]   integral  32    'd90553140
#   raddr[10]  integral  32    'd90553142
#   raddr[11]  integral  32    'd90553144
#   ARVALID    integral  1     1         
#   ARLEN      integral  4     11        
#   ARSIZE     integral  3     'd1       
#   ARBURST    integral  2     'd1       
#   RDATA[0]   integral  32    'd59333   
#   RDATA[1]   integral  32    'd18723   
#   RDATA[2]   integral  32    'd1289    
#   RDATA[3]   integral  32    'd2762    
#   RDATA[4]   integral  32    'd40497   
#   RDATA[5]   integral  32    'd48626   
#   RDATA[6]   integral  32    'd17710   
#   RDATA[7]   integral  32    'd45889   
#   RDATA[8]   integral  32    'd60491   
#   RDATA[9]   integral  32    'd62328   
#   RDATA[10]  integral  32    'd50314   
#   RDATA[11]  integral  32    'd3563    
#   RRESP      integral  2     'd0       
# ---------------------------------------
#  slave_monitor ---------------------------------------
# Name         Type      Size  Value     
# ---------------------------------------
# rxtn         axi_xtn   -     @1341     
#   AWADDR     integral  32    'd0       
#   AWLEN      integral  4     'd0       
#   AWSIZE     integral  3     'd0       
#   AWBURST    integral  2     'd0       
#   BRESP      integral  2     'd0       
#   ARADDR     integral  32    'd90553122
#   raddr[0]   integral  32    'd90553122
#   raddr[1]   integral  32    'd90553124
#   raddr[2]   integral  32    'd90553126
#   raddr[3]   integral  32    'd90553128
#   raddr[4]   integral  32    'd90553130
#   raddr[5]   integral  32    'd90553132
#   raddr[6]   integral  32    'd90553134
#   raddr[7]   integral  32    'd90553136
#   raddr[8]   integral  32    'd90553138
#   raddr[9]   integral  32    'd90553140
#   raddr[10]  integral  32    'd90553142
#   raddr[11]  integral  32    'd90553144
#   ARVALID    integral  1     1         
#   ARLEN      integral  4     11        
#   ARSIZE     integral  3     'd1       
#   ARBURST    integral  2     'd1       
#   RDATA[0]   integral  32    'd59333   
#   RDATA[1]   integral  32    'd18723   
#   RDATA[2]   integral  32    'd1289    
#   RDATA[3]   integral  32    'd2762    
#   RDATA[4]   integral  32    'd40497   
#   RDATA[5]   integral  32    'd48626   
#   RDATA[6]   integral  32    'd17710   
#   RDATA[7]   integral  32    'd45889   
#   RDATA[8]   integral  32    'd60491   
#   RDATA[9]   integral  32    'd62328   
#   RDATA[10]  integral  32    'd50314   
#   RDATA[11]  integral  32    'd3563    
#   RRESP      integral  2     'd0       
# ---------------------------------------
#  
# UVM_INFO ../tb/score_board.sv(95) @ 3795: uvm_test_top.envh.sb [score_board] master and slave data matched
# UVM_INFO ../tb/score_board.sv(87) @ 4175: uvm_test_top.envh.sb [score_board] master_monitor ---------------------------------------
# Name         Type      Size  Value     
# ---------------------------------------
# m_xtn        axi_xtn   -     @1345     
#   AWADDR     integral  32    2878253131
#   waddr[0]   integral  32    2878253131
#   waddr[1]   integral  32    2878253132
#   waddr[2]   integral  32    2878253134
#   waddr[3]   integral  32    2878253136
#   waddr[4]   integral  32    2878253138
#   waddr[5]   integral  32    2878253140
#   waddr[6]   integral  32    2878253142
#   waddr[7]   integral  32    2878253144
#   waddr[8]   integral  32    2878253146
#   waddr[9]   integral  32    2878253148
#   waddr[10]  integral  32    2878253150
#   waddr[11]  integral  32    2878253152
#   waddr[12]  integral  32    2878253154
#   waddr[13]  integral  32    2878253156
#   waddr[14]  integral  32    2878253158
#   waddr[15]  integral  32    2878253160
#   AWLEN      integral  4     15        
#   AWSIZE     integral  3     'd1       
#   AWBURST    integral  2     'd1       
#   WDATA[0]   integral  32    'd195     
#   WDATA[1]   integral  32    'd54855   
#   WDATA[2]   integral  32    'd48405   
#   WDATA[3]   integral  32    'd26839   
#   WDATA[4]   integral  32    'd58332   
#   WDATA[5]   integral  32    'd58566   
#   WDATA[6]   integral  32    'd37153   
#   WDATA[7]   integral  32    'd29646   
#   WDATA[8]   integral  32    'd35832   
#   WDATA[9]   integral  32    'd59318   
#   WDATA[10]  integral  32    'd21653   
#   WDATA[11]  integral  32    'd8977    
#   WDATA[12]  integral  32    'd41043   
#   WDATA[13]  integral  32    'd42795   
#   WDATA[14]  integral  32    'd60872   
#   WDATA[15]  integral  32    'd24924   
#   WSTRB[0]   integral  4     'b1000    
#   WSTRB[1]   integral  4     'b11      
#   WSTRB[2]   integral  4     'b1100    
#   WSTRB[3]   integral  4     'b11      
#   WSTRB[4]   integral  4     'b1100    
#   WSTRB[5]   integral  4     'b11      
#   WSTRB[6]   integral  4     'b1100    
#   WSTRB[7]   integral  4     'b11      
#   WSTRB[8]   integral  4     'b1100    
#   WSTRB[9]   integral  4     'b11      
#   WSTRB[10]  integral  4     'b1100    
#   WSTRB[11]  integral  4     'b11      
#   WSTRB[12]  integral  4     'b1100    
#   WSTRB[13]  integral  4     'b11      
#   WSTRB[14]  integral  4     'b1100    
#   WSTRB[15]  integral  4     'b11      
#   BRESP      integral  2     'd0       
#   ARADDR     integral  32    'd0       
#   ARVALID    integral  1     'd0       
#   ARLEN      integral  4     'd0       
#   ARSIZE     integral  3     'd0       
#   ARBURST    integral  2     'd0       
#   RRESP      integral  2     'd0       
# ---------------------------------------
#  slave_monitor ---------------------------------------
# Name         Type      Size  Value     
# ---------------------------------------
# m_xtn        axi_xtn   -     @1349     
#   AWADDR     integral  32    2878253131
#   waddr[0]   integral  32    2878253131
#   waddr[1]   integral  32    2878253132
#   waddr[2]   integral  32    2878253134
#   waddr[3]   integral  32    2878253136
#   waddr[4]   integral  32    2878253138
#   waddr[5]   integral  32    2878253140
#   waddr[6]   integral  32    2878253142
#   waddr[7]   integral  32    2878253144
#   waddr[8]   integral  32    2878253146
#   waddr[9]   integral  32    2878253148
#   waddr[10]  integral  32    2878253150
#   waddr[11]  integral  32    2878253152
#   waddr[12]  integral  32    2878253154
#   waddr[13]  integral  32    2878253156
#   waddr[14]  integral  32    2878253158
#   waddr[15]  integral  32    2878253160
#   AWLEN      integral  4     15        
#   AWSIZE     integral  3     'd1       
#   AWBURST    integral  2     'd1       
#   WDATA[0]   integral  32    'd195     
#   WDATA[1]   integral  32    'd54855   
#   WDATA[2]   integral  32    'd48405   
#   WDATA[3]   integral  32    'd26839   
#   WDATA[4]   integral  32    'd58332   
#   WDATA[5]   integral  32    'd58566   
#   WDATA[6]   integral  32    'd37153   
#   WDATA[7]   integral  32    'd29646   
#   WDATA[8]   integral  32    'd35832   
#   WDATA[9]   integral  32    'd59318   
#   WDATA[10]  integral  32    'd21653   
#   WDATA[11]  integral  32    'd8977    
#   WDATA[12]  integral  32    'd41043   
#   WDATA[13]  integral  32    'd42795   
#   WDATA[14]  integral  32    'd60872   
#   WDATA[15]  integral  32    'd24924   
#   WSTRB[0]   integral  4     'b1000    
#   WSTRB[1]   integral  4     'b11      
#   WSTRB[2]   integral  4     'b1100    
#   WSTRB[3]   integral  4     'b11      
#   WSTRB[4]   integral  4     'b1100    
#   WSTRB[5]   integral  4     'b11      
#   WSTRB[6]   integral  4     'b1100    
#   WSTRB[7]   integral  4     'b11      
#   WSTRB[8]   integral  4     'b1100    
#   WSTRB[9]   integral  4     'b11      
#   WSTRB[10]  integral  4     'b1100    
#   WSTRB[11]  integral  4     'b11      
#   WSTRB[12]  integral  4     'b1100    
#   WSTRB[13]  integral  4     'b11      
#   WSTRB[14]  integral  4     'b1100    
#   WSTRB[15]  integral  4     'b11      
#   BRESP      integral  2     'd0       
#   ARADDR     integral  32    'd0       
#   ARVALID    integral  1     'd0       
#   ARLEN      integral  4     'd0       
#   ARSIZE     integral  3     'd0       
#   ARBURST    integral  2     'd0       
#   RRESP      integral  2     'd0       
# ---------------------------------------
#  
# UVM_INFO ../tb/score_board.sv(95) @ 4175: uvm_test_top.envh.sb [score_board] master and slave data matched
# UVM_INFO ../tb/score_board.sv(87) @ 4395: uvm_test_top.envh.sb [score_board] master_monitor ---------------------------------------
# Name        Type      Size  Value      
# ---------------------------------------
# rxtn        axi_xtn   -     @1373      
#   AWADDR    integral  32    'd0        
#   AWLEN     integral  4     'd0        
#   AWSIZE    integral  3     'd0        
#   AWBURST   integral  2     'd0        
#   BRESP     integral  2     'd0        
#   ARADDR    integral  32    'd537525353
#   raddr[0]  integral  32    'd537525353
#   raddr[1]  integral  32    'd537525354
#   raddr[2]  integral  32    'd537525355
#   raddr[3]  integral  32    'd537525356
#   raddr[4]  integral  32    'd537525357
#   raddr[5]  integral  32    'd537525358
#   raddr[6]  integral  32    'd537525359
#   raddr[7]  integral  32    'd537525360
#   raddr[8]  integral  32    'd537525361
#   ARVALID   integral  1     1          
#   ARLEN     integral  4     8          
#   ARSIZE    integral  3     'd0        
#   ARBURST   integral  2     'd1        
#   RDATA[0]  integral  32    'd101      
#   RDATA[1]  integral  32    'd75       
#   RDATA[2]  integral  32    'd87       
#   RDATA[3]  integral  32    'd188      
#   RDATA[4]  integral  32    'd221      
#   RDATA[5]  integral  32    'd215      
#   RDATA[6]  integral  32    'd184      
#   RDATA[7]  integral  32    'd133      
#   RDATA[8]  integral  32    'd85       
#   RRESP     integral  2     'd0        
# ---------------------------------------
#  slave_monitor ---------------------------------------
# Name        Type      Size  Value      
# ---------------------------------------
# rxtn        axi_xtn   -     @1377      
#   AWADDR    integral  32    'd0        
#   AWLEN     integral  4     'd0        
#   AWSIZE    integral  3     'd0        
#   AWBURST   integral  2     'd0        
#   BRESP     integral  2     'd0        
#   ARADDR    integral  32    'd537525353
#   raddr[0]  integral  32    'd537525353
#   raddr[1]  integral  32    'd537525354
#   raddr[2]  integral  32    'd537525355
#   raddr[3]  integral  32    'd537525356
#   raddr[4]  integral  32    'd537525357
#   raddr[5]  integral  32    'd537525358
#   raddr[6]  integral  32    'd537525359
#   raddr[7]  integral  32    'd537525360
#   raddr[8]  integral  32    'd537525361
#   ARVALID   integral  1     1          
#   ARLEN     integral  4     8          
#   ARSIZE    integral  3     'd0        
#   ARBURST   integral  2     'd1        
#   RDATA[0]  integral  32    'd101      
#   RDATA[1]  integral  32    'd75       
#   RDATA[2]  integral  32    'd87       
#   RDATA[3]  integral  32    'd188      
#   RDATA[4]  integral  32    'd221      
#   RDATA[5]  integral  32    'd215      
#   RDATA[6]  integral  32    'd184      
#   RDATA[7]  integral  32    'd133      
#   RDATA[8]  integral  32    'd85       
#   RRESP     integral  2     'd0        
# ---------------------------------------
#  
# UVM_INFO ../tb/score_board.sv(95) @ 4395: uvm_test_top.envh.sb [score_board] master and slave data matched
# UVM_INFO ../tb/score_board.sv(87) @ 4475: uvm_test_top.envh.sb [score_board] master_monitor ---------------------------------
# Name        Type      Size  Value
# ---------------------------------
# rxtn        axi_xtn   -     @1401
#   AWADDR    integral  32    'd0  
#   AWLEN     integral  4     'd0  
#   AWSIZE    integral  3     'd0  
#   AWBURST   integral  2     'd0  
#   BRESP     integral  2     'd0  
#   ARADDR    integral  32    'd0  
#   raddr[0]  integral  32    'd0  
#   ARVALID   integral  1     'd0  
#   ARLEN     integral  4     'd0  
#   ARSIZE    integral  3     'd0  
#   ARBURST   integral  2     'd0  
#   RDATA[0]  integral  32    'd59 
#   RRESP     integral  2     'd0  
# ---------------------------------
#  slave_monitor ---------------------------------
# Name        Type      Size  Value
# ---------------------------------
# rxtn        axi_xtn   -     @1405
#   AWADDR    integral  32    'd0  
#   AWLEN     integral  4     'd0  
#   AWSIZE    integral  3     'd0  
#   AWBURST   integral  2     'd0  
#   BRESP     integral  2     'd0  
#   ARADDR    integral  32    'd0  
#   raddr[0]  integral  32    'd0  
#   ARVALID   integral  1     'd0  
#   ARLEN     integral  4     'd0  
#   ARSIZE    integral  3     'd0  
#   ARBURST   integral  2     'd0  
#   RDATA[0]  integral  32    'd59 
#   RRESP     integral  2     'd0  
# ---------------------------------
#  
# UVM_INFO ../tb/score_board.sv(95) @ 4475: uvm_test_top.envh.sb [score_board] master and slave data matched
# UVM_INFO ../tb/score_board.sv(87) @ 4675: uvm_test_top.envh.sb [score_board] master_monitor ---------------------------------------
# Name        Type      Size  Value      
# ---------------------------------------
# rxtn        axi_xtn   -     @1429      
#   AWADDR    integral  32    'd0        
#   AWLEN     integral  4     'd0        
#   AWSIZE    integral  3     'd0        
#   AWBURST   integral  2     'd0        
#   BRESP     integral  2     'd0        
#   ARADDR    integral  32    2823615921 
#   raddr[0]  integral  32    2823615921 
#   raddr[1]  integral  32    2823615924 
#   raddr[2]  integral  32    2823615928 
#   ARVALID   integral  1     1          
#   ARLEN     integral  4     'd2        
#   ARSIZE    integral  3     'd2        
#   ARBURST   integral  2     'd1        
#   RDATA[0]  integral  32    'd1902131  
#   RDATA[1]  integral  32    3206754942 
#   RDATA[2]  integral  32    'd178932501
#   RRESP     integral  2     'd0        
# ---------------------------------------
#  slave_monitor ---------------------------------------
# Name        Type      Size  Value      
# ---------------------------------------
# rxtn        axi_xtn   -     @1433      
#   AWADDR    integral  32    'd0        
#   AWLEN     integral  4     'd0        
#   AWSIZE    integral  3     'd0        
#   AWBURST   integral  2     'd0        
#   BRESP     integral  2     'd0        
#   ARADDR    integral  32    2823615921 
#   raddr[0]  integral  32    2823615921 
#   raddr[1]  integral  32    2823615924 
#   raddr[2]  integral  32    2823615928 
#   ARVALID   integral  1     1          
#   ARLEN     integral  4     'd2        
#   ARSIZE    integral  3     'd2        
#   ARBURST   integral  2     'd1        
#   RDATA[0]  integral  32    'd1902131  
#   RDATA[1]  integral  32    3206754942 
#   RDATA[2]  integral  32    'd178932501
#   RRESP     integral  2     'd0        
# ---------------------------------------
#  
# UVM_INFO ../tb/score_board.sv(95) @ 4675: uvm_test_top.envh.sb [score_board] master and slave data matched
# UVM_INFO ../tb/score_board.sv(87) @ 5155: uvm_test_top.envh.sb [score_board] master_monitor ----------------------------------------
# Name         Type      Size  Value      
# ----------------------------------------
# m_xtn        axi_xtn   -     @1365      
#   AWADDR     integral  32    'd515310458
#   waddr[0]   integral  32    'd515310458
#   waddr[1]   integral  32    'd515310460
#   waddr[2]   integral  32    'd515310462
#   waddr[3]   integral  32    'd515310464
#   waddr[4]   integral  32    'd515310466
#   waddr[5]   integral  32    'd515310468
#   waddr[6]   integral  32    'd515310470
#   waddr[7]   integral  32    'd515310472
#   waddr[8]   integral  32    'd515310474
#   waddr[9]   integral  32    'd515310476
#   waddr[10]  integral  32    'd515310478
#   waddr[11]  integral  32    'd515310480
#   waddr[12]  integral  32    'd515310482
#   waddr[13]  integral  32    'd515310484
#   waddr[14]  integral  32    'd515310486
#   waddr[15]  integral  32    'd515310488
#   AWLEN      integral  4     15         
#   AWSIZE     integral  3     'd1        
#   AWBURST    integral  2     'd1        
#   WDATA[0]   integral  32    'd24515    
#   WDATA[1]   integral  32    'd5350     
#   WDATA[2]   integral  32    'd59392    
#   WDATA[3]   integral  32    'd22554    
#   WDATA[4]   integral  32    'd38750    
#   WDATA[5]   integral  32    'd57423    
#   WDATA[6]   integral  32    'd51685    
#   WDATA[7]   integral  32    'd38284    
#   WDATA[8]   integral  32    'd20380    
#   WDATA[9]   integral  32    'd29311    
#   WDATA[10]  integral  32    'd46647    
#   WDATA[11]  integral  32    'd41908    
#   WDATA[12]  integral  32    'd5335     
#   WDATA[13]  integral  32    'd16856    
#   WDATA[14]  integral  32    'd45732    
#   WDATA[15]  integral  32    'd60307    
#   WSTRB[0]   integral  4     'b1100     
#   WSTRB[1]   integral  4     'b11       
#   WSTRB[2]   integral  4     'b1100     
#   WSTRB[3]   integral  4     'b11       
#   WSTRB[4]   integral  4     'b1100     
#   WSTRB[5]   integral  4     'b11       
#   WSTRB[6]   integral  4     'b1100     
#   WSTRB[7]   integral  4     'b11       
#   WSTRB[8]   integral  4     'b1100     
#   WSTRB[9]   integral  4     'b11       
#   WSTRB[10]  integral  4     'b1100     
#   WSTRB[11]  integral  4     'b11       
#   WSTRB[12]  integral  4     'b1100     
#   WSTRB[13]  integral  4     'b11       
#   WSTRB[14]  integral  4     'b1100     
#   WSTRB[15]  integral  4     'b11       
#   BRESP      integral  2     'd0        
#   ARADDR     integral  32    'd0        
#   ARVALID    integral  1     'd0        
#   ARLEN      integral  4     'd0        
#   ARSIZE     integral  3     'd0        
#   ARBURST    integral  2     'd0        
#   RRESP      integral  2     'd0        
# ----------------------------------------
#  slave_monitor ----------------------------------------
# Name         Type      Size  Value      
# ----------------------------------------
# m_xtn        axi_xtn   -     @1369      
#   AWADDR     integral  32    'd515310458
#   waddr[0]   integral  32    'd515310458
#   waddr[1]   integral  32    'd515310460
#   waddr[2]   integral  32    'd515310462
#   waddr[3]   integral  32    'd515310464
#   waddr[4]   integral  32    'd515310466
#   waddr[5]   integral  32    'd515310468
#   waddr[6]   integral  32    'd515310470
#   waddr[7]   integral  32    'd515310472
#   waddr[8]   integral  32    'd515310474
#   waddr[9]   integral  32    'd515310476
#   waddr[10]  integral  32    'd515310478
#   waddr[11]  integral  32    'd515310480
#   waddr[12]  integral  32    'd515310482
#   waddr[13]  integral  32    'd515310484
#   waddr[14]  integral  32    'd515310486
#   waddr[15]  integral  32    'd515310488
#   AWLEN      integral  4     15         
#   AWSIZE     integral  3     'd1        
#   AWBURST    integral  2     'd1        
#   WDATA[0]   integral  32    'd24515    
#   WDATA[1]   integral  32    'd5350     
#   WDATA[2]   integral  32    'd59392    
#   WDATA[3]   integral  32    'd22554    
#   WDATA[4]   integral  32    'd38750    
#   WDATA[5]   integral  32    'd57423    
#   WDATA[6]   integral  32    'd51685    
#   WDATA[7]   integral  32    'd38284    
#   WDATA[8]   integral  32    'd20380    
#   WDATA[9]   integral  32    'd29311    
#   WDATA[10]  integral  32    'd46647    
#   WDATA[11]  integral  32    'd41908    
#   WDATA[12]  integral  32    'd5335     
#   WDATA[13]  integral  32    'd16856    
#   WDATA[14]  integral  32    'd45732    
#   WDATA[15]  integral  32    'd60307    
#   WSTRB[0]   integral  4     'b1100     
#   WSTRB[1]   integral  4     'b11       
#   WSTRB[2]   integral  4     'b1100     
#   WSTRB[3]   integral  4     'b11       
#   WSTRB[4]   integral  4     'b1100     
#   WSTRB[5]   integral  4     'b11       
#   WSTRB[6]   integral  4     'b1100     
#   WSTRB[7]   integral  4     'b11       
#   WSTRB[8]   integral  4     'b1100     
#   WSTRB[9]   integral  4     'b11       
#   WSTRB[10]  integral  4     'b1100     
#   WSTRB[11]  integral  4     'b11       
#   WSTRB[12]  integral  4     'b1100     
#   WSTRB[13]  integral  4     'b11       
#   WSTRB[14]  integral  4     'b1100     
#   WSTRB[15]  integral  4     'b11       
#   BRESP      integral  2     'd0        
#   ARADDR     integral  32    'd0        
#   ARVALID    integral  1     'd0        
#   ARLEN      integral  4     'd0        
#   ARSIZE     integral  3     'd0        
#   ARBURST    integral  2     'd0        
#   RRESP      integral  2     'd0        
# ----------------------------------------
#  
# UVM_INFO ../tb/score_board.sv(95) @ 5155: uvm_test_top.envh.sb [score_board] master and slave data matched
# UVM_INFO ../tb/score_board.sv(87) @ 5215: uvm_test_top.envh.sb [score_board] master_monitor ---------------------------------------
# Name        Type      Size  Value      
# ---------------------------------------
# m_xtn       axi_xtn   -     @1393      
#   AWADDR    integral  32    'd494639180
#   waddr[0]  integral  32    'd494639180
#   AWLEN     integral  4     'd0        
#   AWSIZE    integral  3     'd0        
#   AWBURST   integral  2     'd1        
#   WDATA[0]  integral  32    'd132      
#   WSTRB[0]  integral  4     'b1        
#   BRESP     integral  2     'd0        
#   ARADDR    integral  32    'd0        
#   ARVALID   integral  1     'd0        
#   ARLEN     integral  4     'd0        
#   ARSIZE    integral  3     'd0        
#   ARBURST   integral  2     'd0        
#   RRESP     integral  2     'd0        
# ---------------------------------------
#  slave_monitor ---------------------------------------
# Name        Type      Size  Value      
# ---------------------------------------
# m_xtn       axi_xtn   -     @1397      
#   AWADDR    integral  32    'd494639180
#   waddr[0]  integral  32    'd494639180
#   AWLEN     integral  4     'd0        
#   AWSIZE    integral  3     'd0        
#   AWBURST   integral  2     'd1        
#   WDATA[0]  integral  32    'd132      
#   WSTRB[0]  integral  4     'b1        
#   BRESP     integral  2     'd0        
#   ARADDR    integral  32    'd0        
#   ARVALID   integral  1     'd0        
#   ARLEN     integral  4     'd0        
#   ARSIZE    integral  3     'd0        
#   ARBURST   integral  2     'd0        
#   RRESP     integral  2     'd0        
# ---------------------------------------
#  
# UVM_INFO ../tb/score_board.sv(95) @ 5215: uvm_test_top.envh.sb [score_board] master and slave data matched
# UVM_INFO ../tb/score_board.sv(87) @ 5295: uvm_test_top.envh.sb [score_board] master_monitor --------------------------------------
# Name        Type      Size  Value     
# --------------------------------------
# rxtn        axi_xtn   -     @1445     
#   AWADDR    integral  32    'd0       
#   AWLEN     integral  4     'd0       
#   AWSIZE    integral  3     'd0       
#   AWBURST   integral  2     'd0       
#   BRESP     integral  2     'd0       
#   ARADDR    integral  32    3907739951
#   raddr[0]  integral  32    3907739951
#   raddr[1]  integral  32    3907739952
#   raddr[2]  integral  32    3907739954
#   raddr[3]  integral  32    3907739956
#   raddr[4]  integral  32    3907739958
#   raddr[5]  integral  32    3907739960
#   raddr[6]  integral  32    3907739962
#   raddr[7]  integral  32    3907739964
#   raddr[8]  integral  32    3907739966
#   ARVALID   integral  1     1         
#   ARLEN     integral  4     8         
#   ARSIZE    integral  3     'd1       
#   ARBURST   integral  2     'd1       
#   RDATA[0]  integral  32    'd120     
#   RDATA[1]  integral  32    'd19417   
#   RDATA[2]  integral  32    'd12579   
#   RDATA[3]  integral  32    'd64332   
#   RDATA[4]  integral  32    'd20385   
#   RDATA[5]  integral  32    'd41359   
#   RDATA[6]  integral  32    'd31853   
#   RDATA[7]  integral  32    'd24759   
#   RDATA[8]  integral  32    'd53188   
#   RRESP     integral  2     'd0       
# --------------------------------------
#  slave_monitor --------------------------------------
# Name        Type      Size  Value     
# --------------------------------------
# rxtn        axi_xtn   -     @1449     
#   AWADDR    integral  32    'd0       
#   AWLEN     integral  4     'd0       
#   AWSIZE    integral  3     'd0       
#   AWBURST   integral  2     'd0       
#   BRESP     integral  2     'd0       
#   ARADDR    integral  32    3907739951
#   raddr[0]  integral  32    3907739951
#   raddr[1]  integral  32    3907739952
#   raddr[2]  integral  32    3907739954
#   raddr[3]  integral  32    3907739956
#   raddr[4]  integral  32    3907739958
#   raddr[5]  integral  32    3907739960
#   raddr[6]  integral  32    3907739962
#   raddr[7]  integral  32    3907739964
#   raddr[8]  integral  32    3907739966
#   ARVALID   integral  1     1         
#   ARLEN     integral  4     8         
#   ARSIZE    integral  3     'd1       
#   ARBURST   integral  2     'd1       
#   RDATA[0]  integral  32    'd120     
#   RDATA[1]  integral  32    'd19417   
#   RDATA[2]  integral  32    'd12579   
#   RDATA[3]  integral  32    'd64332   
#   RDATA[4]  integral  32    'd20385   
#   RDATA[5]  integral  32    'd41359   
#   RDATA[6]  integral  32    'd31853   
#   RDATA[7]  integral  32    'd24759   
#   RDATA[8]  integral  32    'd53188   
#   RRESP     integral  2     'd0       
# --------------------------------------
#  
# UVM_INFO ../tb/score_board.sv(95) @ 5295: uvm_test_top.envh.sb [score_board] master and slave data matched
# UVM_INFO ../tb/score_board.sv(87) @ 5375: uvm_test_top.envh.sb [score_board] master_monitor ---------------------------------
# Name        Type      Size  Value
# ---------------------------------
# rxtn        axi_xtn   -     @1473
#   AWADDR    integral  32    'd0  
#   AWLEN     integral  4     'd0  
#   AWSIZE    integral  3     'd0  
#   AWBURST   integral  2     'd0  
#   BRESP     integral  2     'd0  
#   ARADDR    integral  32    'd0  
#   raddr[0]  integral  32    'd0  
#   ARVALID   integral  1     'd0  
#   ARLEN     integral  4     'd0  
#   ARSIZE    integral  3     'd0  
#   ARBURST   integral  2     'd0  
#   RDATA[0]  integral  32    'd92 
#   RRESP     integral  2     'd0  
# ---------------------------------
#  slave_monitor ---------------------------------
# Name        Type      Size  Value
# ---------------------------------
# rxtn        axi_xtn   -     @1477
#   AWADDR    integral  32    'd0  
#   AWLEN     integral  4     'd0  
#   AWSIZE    integral  3     'd0  
#   AWBURST   integral  2     'd0  
#   BRESP     integral  2     'd0  
#   ARADDR    integral  32    'd0  
#   raddr[0]  integral  32    'd0  
#   ARVALID   integral  1     'd0  
#   ARLEN     integral  4     'd0  
#   ARSIZE    integral  3     'd0  
#   ARBURST   integral  2     'd0  
#   RDATA[0]  integral  32    'd92 
#   RRESP     integral  2     'd0  
# ---------------------------------
#  
# UVM_INFO ../tb/score_board.sv(95) @ 5375: uvm_test_top.envh.sb [score_board] master and slave data matched
# UVM_INFO ../tb/score_board.sv(87) @ 5425: uvm_test_top.envh.sb [score_board] master_monitor ---------------------------------
# Name        Type      Size  Value
# ---------------------------------
# rxtn        axi_xtn   -     @1501
#   AWADDR    integral  32    'd0  
#   AWLEN     integral  4     'd0  
#   AWSIZE    integral  3     'd0  
#   AWBURST   integral  2     'd0  
#   BRESP     integral  2     'd0  
#   ARADDR    integral  32    'd0  
#   raddr[0]  integral  32    'd0  
#   ARVALID   integral  1     'd0  
#   ARLEN     integral  4     'd0  
#   ARSIZE    integral  3     'd0  
#   ARBURST   integral  2     'd0  
#   RDATA[0]  integral  32    'd91 
#   RRESP     integral  2     'd0  
# ---------------------------------
#  slave_monitor ---------------------------------
# Name        Type      Size  Value
# ---------------------------------
# rxtn        axi_xtn   -     @1505
#   AWADDR    integral  32    'd0  
#   AWLEN     integral  4     'd0  
#   AWSIZE    integral  3     'd0  
#   AWBURST   integral  2     'd0  
#   BRESP     integral  2     'd0  
#   ARADDR    integral  32    'd0  
#   raddr[0]  integral  32    'd0  
#   ARVALID   integral  1     'd0  
#   ARLEN     integral  4     'd0  
#   ARSIZE    integral  3     'd0  
#   ARBURST   integral  2     'd0  
#   RDATA[0]  integral  32    'd91 
#   RRESP     integral  2     'd0  
# ---------------------------------
#  
# UVM_INFO ../tb/score_board.sv(95) @ 5425: uvm_test_top.envh.sb [score_board] master and slave data matched
# UVM_INFO ../tb/score_board.sv(87) @ 5615: uvm_test_top.envh.sb [score_board] master_monitor ---------------------------------------
# Name        Type      Size  Value      
# ---------------------------------------
# rxtn        axi_xtn   -     @1533      
#   AWADDR    integral  32    'd0        
#   AWLEN     integral  4     'd0        
#   AWSIZE    integral  3     'd0        
#   AWBURST   integral  2     'd0        
#   BRESP     integral  2     'd0        
#   ARADDR    integral  32    'd569509107
#   raddr[0]  integral  32    'd569509107
#   raddr[1]  integral  32    'd569509108
#   raddr[2]  integral  32    'd569509110
#   ARVALID   integral  1     1          
#   ARLEN     integral  4     'd2        
#   ARSIZE    integral  3     'd1        
#   ARBURST   integral  2     'd1        
#   RDATA[0]  integral  32    'd68       
#   RDATA[1]  integral  32    'd12873    
#   RDATA[2]  integral  32    'd59427    
#   RRESP     integral  2     'd0        
# ---------------------------------------
#  slave_monitor ---------------------------------------
# Name        Type      Size  Value      
# ---------------------------------------
# rxtn        axi_xtn   -     @1537      
#   AWADDR    integral  32    'd0        
#   AWLEN     integral  4     'd0        
#   AWSIZE    integral  3     'd0        
#   AWBURST   integral  2     'd0        
#   BRESP     integral  2     'd0        
#   ARADDR    integral  32    'd569509107
#   raddr[0]  integral  32    'd569509107
#   raddr[1]  integral  32    'd569509108
#   raddr[2]  integral  32    'd569509110
#   ARVALID   integral  1     1          
#   ARLEN     integral  4     'd2        
#   ARSIZE    integral  3     'd1        
#   ARBURST   integral  2     'd1        
#   RDATA[0]  integral  32    'd68       
#   RDATA[1]  integral  32    'd12873    
#   RDATA[2]  integral  32    'd59427    
#   RRESP     integral  2     'd0        
# ---------------------------------------
#  
# UVM_INFO ../tb/score_board.sv(95) @ 5615: uvm_test_top.envh.sb [score_board] master and slave data matched
# UVM_INFO ../tb/score_board.sv(87) @ 5995: uvm_test_top.envh.sb [score_board] master_monitor ---------------------------------------
# Name         Type      Size  Value     
# ---------------------------------------
# m_xtn        axi_xtn   -     @1421     
#   AWADDR     integral  32    2346119319
#   waddr[0]   integral  32    2346119319
#   waddr[1]   integral  32    2346119320
#   waddr[2]   integral  32    2346119322
#   waddr[3]   integral  32    2346119324
#   waddr[4]   integral  32    2346119326
#   waddr[5]   integral  32    2346119328
#   waddr[6]   integral  32    2346119330
#   waddr[7]   integral  32    2346119332
#   waddr[8]   integral  32    2346119334
#   waddr[9]   integral  32    2346119336
#   waddr[10]  integral  32    2346119338
#   waddr[11]  integral  32    2346119340
#   waddr[12]  integral  32    2346119342
#   AWLEN      integral  4     12        
#   AWSIZE     integral  3     'd1       
#   AWBURST    integral  2     'd1       
#   WDATA[0]   integral  32    'd28      
#   WDATA[1]   integral  32    'd63884   
#   WDATA[2]   integral  32    'd7589    
#   WDATA[3]   integral  32    'd5477    
#   WDATA[4]   integral  32    'd23338   
#   WDATA[5]   integral  32    'd14253   
#   WDATA[6]   integral  32    'd40429   
#   WDATA[7]   integral  32    'd55704   
#   WDATA[8]   integral  32    'd24773   
#   WDATA[9]   integral  32    'd39542   
#   WDATA[10]  integral  32    'd21372   
#   WDATA[11]  integral  32    'd1818    
#   WDATA[12]  integral  32    'd58129   
#   WSTRB[0]   integral  4     'b1000    
#   WSTRB[1]   integral  4     'b11      
#   WSTRB[2]   integral  4     'b1100    
#   WSTRB[3]   integral  4     'b11      
#   WSTRB[4]   integral  4     'b1100    
#   WSTRB[5]   integral  4     'b11      
#   WSTRB[6]   integral  4     'b1100    
#   WSTRB[7]   integral  4     'b11      
#   WSTRB[8]   integral  4     'b1100    
#   WSTRB[9]   integral  4     'b11      
#   WSTRB[10]  integral  4     'b1100    
#   WSTRB[11]  integral  4     'b11      
#   WSTRB[12]  integral  4     'b1100    
#   BRESP      integral  2     'd0       
#   ARADDR     integral  32    'd0       
#   ARVALID    integral  1     'd0       
#   ARLEN      integral  4     'd0       
#   ARSIZE     integral  3     'd0       
#   ARBURST    integral  2     'd0       
#   RRESP      integral  2     'd0       
# ---------------------------------------
#  slave_monitor ---------------------------------------
# Name         Type      Size  Value     
# ---------------------------------------
# m_xtn        axi_xtn   -     @1425     
#   AWADDR     integral  32    2346119319
#   waddr[0]   integral  32    2346119319
#   waddr[1]   integral  32    2346119320
#   waddr[2]   integral  32    2346119322
#   waddr[3]   integral  32    2346119324
#   waddr[4]   integral  32    2346119326
#   waddr[5]   integral  32    2346119328
#   waddr[6]   integral  32    2346119330
#   waddr[7]   integral  32    2346119332
#   waddr[8]   integral  32    2346119334
#   waddr[9]   integral  32    2346119336
#   waddr[10]  integral  32    2346119338
#   waddr[11]  integral  32    2346119340
#   waddr[12]  integral  32    2346119342
#   AWLEN      integral  4     12        
#   AWSIZE     integral  3     'd1       
#   AWBURST    integral  2     'd1       
#   WDATA[0]   integral  32    'd28      
#   WDATA[1]   integral  32    'd63884   
#   WDATA[2]   integral  32    'd7589    
#   WDATA[3]   integral  32    'd5477    
#   WDATA[4]   integral  32    'd23338   
#   WDATA[5]   integral  32    'd14253   
#   WDATA[6]   integral  32    'd40429   
#   WDATA[7]   integral  32    'd55704   
#   WDATA[8]   integral  32    'd24773   
#   WDATA[9]   integral  32    'd39542   
#   WDATA[10]  integral  32    'd21372   
#   WDATA[11]  integral  32    'd1818    
#   WDATA[12]  integral  32    'd58129   
#   WSTRB[0]   integral  4     'b1000    
#   WSTRB[1]   integral  4     'b11      
#   WSTRB[2]   integral  4     'b1100    
#   WSTRB[3]   integral  4     'b11      
#   WSTRB[4]   integral  4     'b1100    
#   WSTRB[5]   integral  4     'b11      
#   WSTRB[6]   integral  4     'b1100    
#   WSTRB[7]   integral  4     'b11      
#   WSTRB[8]   integral  4     'b1100    
#   WSTRB[9]   integral  4     'b11      
#   WSTRB[10]  integral  4     'b1100    
#   WSTRB[11]  integral  4     'b11      
#   WSTRB[12]  integral  4     'b1100    
#   BRESP      integral  2     'd0       
#   ARADDR     integral  32    'd0       
#   ARVALID    integral  1     'd0       
#   ARLEN      integral  4     'd0       
#   ARSIZE     integral  3     'd0       
#   ARBURST    integral  2     'd0       
#   RRESP      integral  2     'd0       
# ---------------------------------------
#  
# UVM_INFO ../tb/score_board.sv(95) @ 5995: uvm_test_top.envh.sb [score_board] master and slave data matched
# UVM_INFO ../tb/score_board.sv(87) @ 6225: uvm_test_top.envh.sb [score_board] master_monitor ----------------------------------------
# Name        Type      Size  Value       
# ----------------------------------------
# m_xtn       axi_xtn   -     @1453       
#   AWADDR    integral  32    'd75341648  
#   waddr[0]  integral  32    'd75341648  
#   waddr[1]  integral  32    'd75341652  
#   waddr[2]  integral  32    'd75341656  
#   AWLEN     integral  4     'd2         
#   AWSIZE    integral  3     'd2         
#   AWBURST   integral  2     'd1         
#   WDATA[0]  integral  32    2362564997  
#   WDATA[1]  integral  32    2279935852  
#   WDATA[2]  integral  32    'd1114050152
#   WSTRB[0]  integral  4     'b1111      
#   WSTRB[1]  integral  4     'b1111      
#   WSTRB[2]  integral  4     'b1111      
#   BRESP     integral  2     'd0         
#   ARADDR    integral  32    'd0         
#   ARVALID   integral  1     'd0         
#   ARLEN     integral  4     'd0         
#   ARSIZE    integral  3     'd0         
#   ARBURST   integral  2     'd0         
#   RRESP     integral  2     'd0         
# ----------------------------------------
#  slave_monitor ----------------------------------------
# Name        Type      Size  Value       
# ----------------------------------------
# m_xtn       axi_xtn   -     @1457       
#   AWADDR    integral  32    'd75341648  
#   waddr[0]  integral  32    'd75341648  
#   waddr[1]  integral  32    'd75341652  
#   waddr[2]  integral  32    'd75341656  
#   AWLEN     integral  4     'd2         
#   AWSIZE    integral  3     'd2         
#   AWBURST   integral  2     'd1         
#   WDATA[0]  integral  32    2362564997  
#   WDATA[1]  integral  32    2279935852  
#   WDATA[2]  integral  32    'd1114050152
#   WSTRB[0]  integral  4     'b1111      
#   WSTRB[1]  integral  4     'b1111      
#   WSTRB[2]  integral  4     'b1111      
#   BRESP     integral  2     'd0         
#   ARADDR    integral  32    'd0         
#   ARVALID   integral  1     'd0         
#   ARLEN     integral  4     'd0         
#   ARSIZE    integral  3     'd0         
#   ARBURST   integral  2     'd0         
#   RRESP     integral  2     'd0         
# ----------------------------------------
#  
# UVM_INFO ../tb/score_board.sv(95) @ 6225: uvm_test_top.envh.sb [score_board] master and slave data matched
# UVM_INFO ../tb/score_board.sv(87) @ 6485: uvm_test_top.envh.sb [score_board] master_monitor ----------------------------------------
# Name        Type      Size  Value       
# ----------------------------------------
# m_xtn       axi_xtn   -     @1481       
#   AWADDR    integral  32    3035889601  
#   waddr[0]  integral  32    3035889601  
#   waddr[1]  integral  32    3035889604  
#   waddr[2]  integral  32    3035889608  
#   waddr[3]  integral  32    3035889612  
#   waddr[4]  integral  32    3035889616  
#   AWLEN     integral  4     'd4         
#   AWSIZE    integral  3     'd2         
#   AWBURST   integral  2     'd1         
#   WDATA[0]  integral  32    'd5064995   
#   WDATA[1]  integral  32    2416996214  
#   WDATA[2]  integral  32    'd1090378841
#   WDATA[3]  integral  32    'd1030587917
#   WDATA[4]  integral  32    'd2025686516
#   WSTRB[0]  integral  4     'b1110      
#   WSTRB[1]  integral  4     'b1111      
#   WSTRB[2]  integral  4     'b1111      
#   WSTRB[3]  integral  4     'b1111      
#   WSTRB[4]  integral  4     'b1111      
#   BRESP     integral  2     'd0         
#   ARADDR    integral  32    'd0         
#   ARVALID   integral  1     'd0         
#   ARLEN     integral  4     'd0         
#   ARSIZE    integral  3     'd0         
#   ARBURST   integral  2     'd0         
#   RRESP     integral  2     'd0         
# ----------------------------------------
#  slave_monitor ----------------------------------------
# Name        Type      Size  Value       
# ----------------------------------------
# m_xtn       axi_xtn   -     @1485       
#   AWADDR    integral  32    3035889601  
#   waddr[0]  integral  32    3035889601  
#   waddr[1]  integral  32    3035889604  
#   waddr[2]  integral  32    3035889608  
#   waddr[3]  integral  32    3035889612  
#   waddr[4]  integral  32    3035889616  
#   AWLEN     integral  4     'd4         
#   AWSIZE    integral  3     'd2         
#   AWBURST   integral  2     'd1         
#   WDATA[0]  integral  32    'd5064995   
#   WDATA[1]  integral  32    2416996214  
#   WDATA[2]  integral  32    'd1090378841
#   WDATA[3]  integral  32    'd1030587917
#   WDATA[4]  integral  32    'd2025686516
#   WSTRB[0]  integral  4     'b1110      
#   WSTRB[1]  integral  4     'b1111      
#   WSTRB[2]  integral  4     'b1111      
#   WSTRB[3]  integral  4     'b1111      
#   WSTRB[4]  integral  4     'b1111      
#   BRESP     integral  2     'd0         
#   ARADDR    integral  32    'd0         
#   ARVALID   integral  1     'd0         
#   ARLEN     integral  4     'd0         
#   ARSIZE    integral  3     'd0         
#   ARBURST   integral  2     'd0         
#   RRESP     integral  2     'd0         
# ----------------------------------------
#  
# UVM_INFO ../tb/score_board.sv(95) @ 6485: uvm_test_top.envh.sb [score_board] master and slave data matched
# UVM_INFO ../tb/score_board.sv(87) @ 7035: uvm_test_top.envh.sb [score_board] master_monitor ----------------------------------------
# Name        Type      Size  Value       
# ----------------------------------------
# m_xtn       axi_xtn   -     @1509       
#   AWADDR    integral  32    'd1577705226
#   waddr[0]  integral  32    'd1577705226
#   waddr[1]  integral  32    'd1577705228
#   waddr[2]  integral  32    'd1577705232
#   waddr[3]  integral  32    'd1577705236
#   waddr[4]  integral  32    'd1577705240
#   waddr[5]  integral  32    'd1577705244
#   waddr[6]  integral  32    'd1577705248
#   waddr[7]  integral  32    'd1577705252
#   waddr[8]  integral  32    'd1577705256
#   waddr[9]  integral  32    'd1577705260
#   AWLEN     integral  4     9           
#   AWSIZE    integral  3     'd2         
#   AWBURST   integral  2     'd1         
#   WDATA[0]  integral  32    'd28601     
#   WDATA[1]  integral  32    'd227165544 
#   WDATA[2]  integral  32    2172130922  
#   WDATA[3]  integral  32    3090588943  
#   WDATA[4]  integral  32    4073478097  
#   WDATA[5]  integral  32    4277794826  
#   WDATA[6]  integral  32    'd1463211803
#   WDATA[7]  integral  32    3961298369  
#   WDATA[8]  integral  32    3117770567  
#   WDATA[9]  integral  32    2778321758  
#   WSTRB[0]  integral  4     'b1100      
#   WSTRB[1]  integral  4     'b1111      
#   WSTRB[2]  integral  4     'b1111      
#   WSTRB[3]  integral  4     'b1111      
#   WSTRB[4]  integral  4     'b1111      
#   WSTRB[5]  integral  4     'b1111      
#   WSTRB[6]  integral  4     'b1111      
#   WSTRB[7]  integral  4     'b1111      
#   WSTRB[8]  integral  4     'b1111      
#   WSTRB[9]  integral  4     'b1111      
#   BRESP     integral  2     'd0         
#   ARADDR    integral  32    'd0         
#   ARVALID   integral  1     'd0         
#   ARLEN     integral  4     'd0         
#   ARSIZE    integral  3     'd0         
#   ARBURST   integral  2     'd0         
#   RRESP     integral  2     'd0         
# ----------------------------------------
#  slave_monitor ----------------------------------------
# Name        Type      Size  Value       
# ----------------------------------------
# m_xtn       axi_xtn   -     @1513       
#   AWADDR    integral  32    'd1577705226
#   waddr[0]  integral  32    'd1577705226
#   waddr[1]  integral  32    'd1577705228
#   waddr[2]  integral  32    'd1577705232
#   waddr[3]  integral  32    'd1577705236
#   waddr[4]  integral  32    'd1577705240
#   waddr[5]  integral  32    'd1577705244
#   waddr[6]  integral  32    'd1577705248
#   waddr[7]  integral  32    'd1577705252
#   waddr[8]  integral  32    'd1577705256
#   waddr[9]  integral  32    'd1577705260
#   AWLEN     integral  4     9           
#   AWSIZE    integral  3     'd2         
#   AWBURST   integral  2     'd1         
#   WDATA[0]  integral  32    'd28601     
#   WDATA[1]  integral  32    'd227165544 
#   WDATA[2]  integral  32    2172130922  
#   WDATA[3]  integral  32    3090588943  
#   WDATA[4]  integral  32    4073478097  
#   WDATA[5]  integral  32    4277794826  
#   WDATA[6]  integral  32    'd1463211803
#   WDATA[7]  integral  32    3961298369  
#   WDATA[8]  integral  32    3117770567  
#   WDATA[9]  integral  32    2778321758  
#   WSTRB[0]  integral  4     'b1100      
#   WSTRB[1]  integral  4     'b1111      
#   WSTRB[2]  integral  4     'b1111      
#   WSTRB[3]  integral  4     'b1111      
#   WSTRB[4]  integral  4     'b1111      
#   WSTRB[5]  integral  4     'b1111      
#   WSTRB[6]  integral  4     'b1111      
#   WSTRB[7]  integral  4     'b1111      
#   WSTRB[8]  integral  4     'b1111      
#   WSTRB[9]  integral  4     'b1111      
#   BRESP     integral  2     'd0         
#   ARADDR    integral  32    'd0         
#   ARVALID   integral  1     'd0         
#   ARLEN     integral  4     'd0         
#   ARSIZE    integral  3     'd0         
#   ARBURST   integral  2     'd0         
#   RRESP     integral  2     'd0         
# ----------------------------------------
#  
# UVM_INFO ../tb/score_board.sv(95) @ 7035: uvm_test_top.envh.sb [score_board] master and slave data matched
# UVM_INFO ../tb/score_board.sv(87) @ 7775: uvm_test_top.envh.sb [score_board] master_monitor ---------------------------------------
# Name         Type      Size  Value     
# ---------------------------------------
# m_xtn        axi_xtn   -     @1525     
#   AWADDR     integral  32    2945129091
#   waddr[0]   integral  32    2945129091
#   waddr[1]   integral  32    2945129092
#   waddr[2]   integral  32    2945129094
#   waddr[3]   integral  32    2945129096
#   waddr[4]   integral  32    2945129098
#   waddr[5]   integral  32    2945129100
#   waddr[6]   integral  32    2945129102
#   waddr[7]   integral  32    2945129104
#   waddr[8]   integral  32    2945129106
#   waddr[9]   integral  32    2945129108
#   waddr[10]  integral  32    2945129110
#   waddr[11]  integral  32    2945129112
#   AWLEN      integral  4     11        
#   AWSIZE     integral  3     'd1       
#   AWBURST    integral  2     'd1       
#   WDATA[0]   integral  32    'd247     
#   WDATA[1]   integral  32    'd59730   
#   WDATA[2]   integral  32    'd30436   
#   WDATA[3]   integral  32    'd12093   
#   WDATA[4]   integral  32    'd1029    
#   WDATA[5]   integral  32    'd9474    
#   WDATA[6]   integral  32    'd36264   
#   WDATA[7]   integral  32    'd46309   
#   WDATA[8]   integral  32    'd40325   
#   WDATA[9]   integral  32    'd60653   
#   WDATA[10]  integral  32    'd63455   
#   WDATA[11]  integral  32    'd50330   
#   WSTRB[0]   integral  4     'b1000    
#   WSTRB[1]   integral  4     'b11      
#   WSTRB[2]   integral  4     'b1100    
#   WSTRB[3]   integral  4     'b11      
#   WSTRB[4]   integral  4     'b1100    
#   WSTRB[5]   integral  4     'b11      
#   WSTRB[6]   integral  4     'b1100    
#   WSTRB[7]   integral  4     'b11      
#   WSTRB[8]   integral  4     'b1100    
#   WSTRB[9]   integral  4     'b11      
#   WSTRB[10]  integral  4     'b1100    
#   WSTRB[11]  integral  4     'b11      
#   BRESP      integral  2     'd0       
#   ARADDR     integral  32    'd0       
#   ARVALID    integral  1     'd0       
#   ARLEN      integral  4     'd0       
#   ARSIZE     integral  3     'd0       
#   ARBURST    integral  2     'd0       
#   RRESP      integral  2     'd0       
# ---------------------------------------
#  slave_monitor ---------------------------------------
# Name         Type      Size  Value     
# ---------------------------------------
# m_xtn        axi_xtn   -     @1529     
#   AWADDR     integral  32    2945129091
#   waddr[0]   integral  32    2945129091
#   waddr[1]   integral  32    2945129092
#   waddr[2]   integral  32    2945129094
#   waddr[3]   integral  32    2945129096
#   waddr[4]   integral  32    2945129098
#   waddr[5]   integral  32    2945129100
#   waddr[6]   integral  32    2945129102
#   waddr[7]   integral  32    2945129104
#   waddr[8]   integral  32    2945129106
#   waddr[9]   integral  32    2945129108
#   waddr[10]  integral  32    2945129110
#   waddr[11]  integral  32    2945129112
#   AWLEN      integral  4     11        
#   AWSIZE     integral  3     'd1       
#   AWBURST    integral  2     'd1       
#   WDATA[0]   integral  32    'd247     
#   WDATA[1]   integral  32    'd59730   
#   WDATA[2]   integral  32    'd30436   
#   WDATA[3]   integral  32    'd12093   
#   WDATA[4]   integral  32    'd1029    
#   WDATA[5]   integral  32    'd9474    
#   WDATA[6]   integral  32    'd36264   
#   WDATA[7]   integral  32    'd46309   
#   WDATA[8]   integral  32    'd40325   
#   WDATA[9]   integral  32    'd60653   
#   WDATA[10]  integral  32    'd63455   
#   WDATA[11]  integral  32    'd50330   
#   WSTRB[0]   integral  4     'b1000    
#   WSTRB[1]   integral  4     'b11      
#   WSTRB[2]   integral  4     'b1100    
#   WSTRB[3]   integral  4     'b11      
#   WSTRB[4]   integral  4     'b1100    
#   WSTRB[5]   integral  4     'b11      
#   WSTRB[6]   integral  4     'b1100    
#   WSTRB[7]   integral  4     'b11      
#   WSTRB[8]   integral  4     'b1100    
#   WSTRB[9]   integral  4     'b11      
#   WSTRB[10]  integral  4     'b1100    
#   WSTRB[11]  integral  4     'b11      
#   BRESP      integral  2     'd0       
#   ARADDR     integral  32    'd0       
#   ARVALID    integral  1     'd0       
#   ARLEN      integral  4     'd0       
#   ARSIZE     integral  3     'd0       
#   ARBURST    integral  2     'd0       
#   RRESP      integral  2     'd0       
# ---------------------------------------
#  
# UVM_INFO ../tb/score_board.sv(95) @ 7775: uvm_test_top.envh.sb [score_board] master and slave data matched
# UVM_INFO verilog_src/uvm-1.1d/src/base/uvm_objection.svh(1267) @ 7775: reporter [TEST_DONE] 'run' phase is ready to proceed to the 'extract' phase
# UVM_INFO @ 7775: reporter [UVMTOP] UVM testbench topology:
# --------------------------------------------------------------------
# Name                         Type                        Size  Value
# --------------------------------------------------------------------
# uvm_test_top                 inc_test                    -     @474 
#   envh                       env                         -     @490 
#     m_uvc                    master_agent_top            -     @498 
#       m_agent[0]             master_agent                -     @629 
#         drvh                 master_driver               -     @656 
#           rsp_port           uvm_analysis_port           -     @671 
#           seq_item_port      uvm_seq_item_pull_port      -     @663 
#         monh                 master_monitor              -     @641 
#           analysis_port      uvm_analysis_port           -     @648 
#         seqrh                master_sequencer            -     @679 
#           rsp_export         uvm_analysis_export         -     @686 
#           seq_item_export    uvm_seq_item_pull_imp       -     @780 
#           arbitration_queue  array                       0     -    
#           lock_queue         array                       0     -    
#           num_last_reqs      integral                    32    'd1  
