# vsim -cvgperinstance -vopt -voptargs="+acc" -coverage -sva -c -do "log -r /*; coverage save -onexit mem_cov2; run -all; exit" -wlf fixed_wave.wlf -l test2.log -sv_seed random work.top "+UVM_TESTNAME=fixed_test" 
# Start time: 20:29:22 on Apr 18,2026
# ** Note: (vsim-8009) Loading existing optimized design _opt
# //  Questa Sim-64
# //  Version 2024.1 win64 Feb  1 2024
# //
# // Unpublished work. Copyright 2024 Siemens
# //
# // This material contains trade secrets or otherwise confidential information
# // owned by Siemens Industry Software Inc. or its affiliates (collectively,
# // "SISW"), or its licensors. Access to and use of this information is strictly
# // limited as set forth in the Customer's applicable agreements with SISW.
# //
# // This material may not be copied, distributed, or otherwise disclosed outside
# // of the Customer's facilities without the express written permission of SISW,
# // and may not be used in any way not expressly authorized by SISW.
# //
# Loading sv_std.std
# Loading work.axi(fast)
# Loading mtiUvm.uvm_pkg(fast)
# Loading work.axi_pkg(fast)
# Loading mtiUvm.questa_uvm_pkg(fast)
# Loading work.top(fast)
# Loading work.axi(fast__2)
# Loading C:/questasim64_2024.1/uvm-1.1d\win64\uvm_dpi.dll
# ** Warning: (vsim-8634) Code was not compiled with coverage options.
# Sv_Seed = 1360252758
# log -r /*
#  coverage save -onexit mem_cov2
#  run -all
# ----------------------------------------------------------------
# UVM-1.1d
# (C) 2007-2013 Mentor Graphics Corporation
# (C) 2007-2013 Cadence Design Systems, Inc.
# (C) 2006-2013 Synopsys, Inc.
# (C) 2011-2013 Cypress Semiconductor Corp.
# ----------------------------------------------------------------
# 
#   ***********       IMPORTANT RELEASE NOTES         ************
# 
#   You are using a version of the UVM library that has been compiled
#   with `UVM_NO_DEPRECATED undefined.
#   See http://www.eda.org/svdb/view.php?id=3313 for more details.
# 
#   You are using a version of the UVM library that has been compiled
#   with `UVM_OBJECT_MUST_HAVE_CONSTRUCTOR undefined.
#   See http://www.eda.org/svdb/view.php?id=3770 for more details.
# 
#       (Specify +UVM_NO_RELNOTES to turn off this notice)
# 
# UVM_INFO verilog_src/questa_uvm_pkg-1.2/src/questa_uvm_pkg.sv(277) @ 0: reporter [Questa UVM] QUESTA_UVM-1.2.3
# UVM_INFO verilog_src/questa_uvm_pkg-1.2/src/questa_uvm_pkg.sv(278) @ 0: reporter [Questa UVM]  questa_uvm::init(+struct)
# UVM_INFO @ 0: reporter [RNTST] Running test fixed_test...
# UVM_INFO @ 0: reporter [UVMTOP] UVM testbench topology:
# --------------------------------------------------------------------
# Name                         Type                        Size  Value
# --------------------------------------------------------------------
# uvm_test_top                 fixed_test                  -     @474 
#   envh                       env                         -     @490 
#     m_uvc                    master_agent_top            -     @498 
#       m_agent[0]             master_agent                -     @629 
#         drvh                 master_driver               -     @656 
#           rsp_port           uvm_analysis_port           -     @671 
#           seq_item_port      uvm_seq_item_pull_port      -     @663 
#         monh                 master_monitor              -     @641 
#           analysis_port      uvm_analysis_port           -     @648 
#         seqrh                master_sequencer            -     @679 
#           rsp_export         uvm_analysis_export         -     @686 
#           seq_item_export    uvm_seq_item_pull_imp       -     @780 
#           arbitration_queue  array                       0     -    
#           lock_queue         array                       0     -    
#           num_last_reqs      integral                    32    'd1  
#           num_last_rsps      integral                    32    'd1  
#     s_uvc                    slave_agent_top             -     @505 
#       s_agent[0]             slave_agent                 -     @796 
#         drvh                 slave_driver                -     @823 
#           rsp_port           uvm_analysis_port           -     @838 
#           seq_item_port      uvm_seq_item_pull_port      -     @830 
#         monh                 slave_monitor               -     @808 
#           analysis_port      uvm_analysis_port           -     @815 
#         seqrh                slave_sequencer             -     @846 
#           rsp_export         uvm_analysis_export         -     @853 
#           seq_item_export    uvm_seq_item_pull_imp       -     @947 
#           arbitration_queue  array                       0     -    
#           lock_queue         array                       0     -    
#           num_last_reqs      integral                    32    'd1  
#           num_last_rsps      integral                    32    'd1  
#     sb                       score_board                 -     @512 
#       m_fifo[0]              uvm_tlm_analysis_fifo #(T)  -     @963 
#         analysis_export      uvm_analysis_imp            -     @1002
#         get_ap               uvm_analysis_port           -     @994 
#         get_peek_export      uvm_get_peek_imp            -     @978 
#         put_ap               uvm_analysis_port           -     @986 
#         put_export           uvm_put_imp                 -     @970 
#       s_fifo[0]              uvm_tlm_analysis_fifo #(T)  -     @1010
#         analysis_export      uvm_analysis_imp            -     @1049
#         get_ap               uvm_analysis_port           -     @1041
#         get_peek_export      uvm_get_peek_imp            -     @1025
#         put_ap               uvm_analysis_port           -     @1033
#         put_export           uvm_put_imp                 -     @1017
#     v_seqrh                  virtual_sequencer           -     @519 
#       rsp_export             uvm_analysis_export         -     @526 
#       seq_item_export        uvm_seq_item_pull_imp       -     @620 
#       arbitration_queue      array                       0     -    
#       lock_queue             array                       0     -    
#       num_last_reqs          integral                    32    'd1  
#       num_last_rsps          integral                    32    'd1  
# --------------------------------------------------------------------
# 
# UVM_INFO ../tb/score_board.sv(87) @ 365: uvm_test_top.envh.sb [score_board] master_monitor --------------------------------------
# Name        Type      Size  Value     
# --------------------------------------
# rxtn        axi_xtn   -     @1089     
#   AWADDR    integral  32    'd0       
#   AWLEN     integral  4     'd0       
#   AWSIZE    integral  3     'd0       
#   AWBURST   integral  2     'd0       
#   BRESP     integral  2     'd0       
#   ARADDR    integral  32    2832098164
#   raddr[0]  integral  32    2832098164
#   raddr[1]  integral  32    2832098164
#   raddr[2]  integral  32    2832098164
#   raddr[3]  integral  32    2832098164
#   raddr[4]  integral  32    2832098164
#   ARVALID   integral  1     1         
#   ARLEN     integral  4     'd4       
#   ARSIZE    integral  3     'd0       
#   ARBURST   integral  2     'd0       
#   RDATA[0]  integral  32    'd36      
#   RDATA[1]  integral  32    'd129     
#   RDATA[2]  integral  32    'd9       
#   RDATA[3]  integral  32    'd99      
#   RDATA[4]  integral  32    'd13      
#   RRESP     integral  2     'd0       
# --------------------------------------
#  slave_monitor --------------------------------------
# Name        Type      Size  Value     
# --------------------------------------
# rxtn        axi_xtn   -     @1071     
#   AWADDR    integral  32    'd0       
#   AWLEN     integral  4     'd0       
#   AWSIZE    integral  3     'd0       
#   AWBURST   integral  2     'd0       
#   BRESP     integral  2     'd0       
#   ARADDR    integral  32    2832098164
#   raddr[0]  integral  32    2832098164
#   raddr[1]  integral  32    2832098164
#   raddr[2]  integral  32    2832098164
#   raddr[3]  integral  32    2832098164
#   raddr[4]  integral  32    2832098164
#   ARVALID   integral  1     1         
#   ARLEN     integral  4     'd4       
#   ARSIZE    integral  3     'd0       
#   ARBURST   integral  2     'd0       
#   RDATA[0]  integral  32    'd36      
#   RDATA[1]  integral  32    'd129     
#   RDATA[2]  integral  32    'd9       
#   RDATA[3]  integral  32    'd99      
#   RDATA[4]  integral  32    'd13      
#   RRESP     integral  2     'd0       
# --------------------------------------
#  
# UVM_INFO ../tb/score_board.sv(95) @ 365: uvm_test_top.envh.sb [score_board] master and slave data matched
# UVM_INFO ../tb/score_board.sv(87) @ 675: uvm_test_top.envh.sb [score_board] master_monitor --------------------------------------
# Name        Type      Size  Value     
# --------------------------------------
# m_xtn       axi_xtn   -     @1085     
#   AWADDR    integral  32    2393755469
#   waddr[0]  integral  32    2393755469
#   waddr[1]  integral  32    2393755469
#   waddr[2]  integral  32    2393755469
#   waddr[3]  integral  32    2393755469
#   waddr[4]  integral  32    2393755469
#   waddr[5]  integral  32    2393755469
#   waddr[6]  integral  32    2393755469
#   waddr[7]  integral  32    2393755469
#   waddr[8]  integral  32    2393755469
#   AWLEN     integral  4     8         
#   AWSIZE    integral  3     'd2       
#   AWBURST   integral  2     'd0       
#   WDATA[0]  integral  32    'd14967241
#   WDATA[1]  integral  32    'd195663  
#   WDATA[2]  integral  32    'd4933639 
#   WDATA[3]  integral  32    'd9294525 
#   WDATA[4]  integral  32    'd2669778 
#   WDATA[5]  integral  32    'd6138308 
#   WDATA[6]  integral  32    'd14919839
#   WDATA[7]  integral  32    'd5884514 
#   WDATA[8]  integral  32    'd7013212 
#   WSTRB[0]  integral  4     'b1110    
#   WSTRB[1]  integral  4     'b1110    
#   WSTRB[2]  integral  4     'b1110    
#   WSTRB[3]  integral  4     'b1110    
#   WSTRB[4]  integral  4     'b1110    
#   WSTRB[5]  integral  4     'b1110    
#   WSTRB[6]  integral  4     'b1110    
#   WSTRB[7]  integral  4     'b1110    
#   WSTRB[8]  integral  4     'b1110    
#   BRESP     integral  2     'd0       
#   ARADDR    integral  32    'd0       
#   ARVALID   integral  1     'd0       
#   ARLEN     integral  4     'd0       
#   ARSIZE    integral  3     'd0       
#   ARBURST   integral  2     'd0       
#   RRESP     integral  2     'd0       
# --------------------------------------
#  slave_monitor --------------------------------------
# Name        Type      Size  Value     
# --------------------------------------
# m_xtn       axi_xtn   -     @1067     
#   AWADDR    integral  32    2393755469
#   waddr[0]  integral  32    2393755469
#   waddr[1]  integral  32    2393755469
#   waddr[2]  integral  32    2393755469
#   waddr[3]  integral  32    2393755469
#   waddr[4]  integral  32    2393755469
#   waddr[5]  integral  32    2393755469
#   waddr[6]  integral  32    2393755469
#   waddr[7]  integral  32    2393755469
#   waddr[8]  integral  32    2393755469
#   AWLEN     integral  4     8         
#   AWSIZE    integral  3     'd2       
#   AWBURST   integral  2     'd0       
#   WDATA[0]  integral  32    'd14967241
#   WDATA[1]  integral  32    'd195663  
#   WDATA[2]  integral  32    'd4933639 
#   WDATA[3]  integral  32    'd9294525 
#   WDATA[4]  integral  32    'd2669778 
#   WDATA[5]  integral  32    'd6138308 
#   WDATA[6]  integral  32    'd14919839
#   WDATA[7]  integral  32    'd5884514 
#   WDATA[8]  integral  32    'd7013212 
#   WSTRB[0]  integral  4     'b1110    
#   WSTRB[1]  integral  4     'b1110    
#   WSTRB[2]  integral  4     'b1110    
#   WSTRB[3]  integral  4     'b1110    
#   WSTRB[4]  integral  4     'b1110    
#   WSTRB[5]  integral  4     'b1110    
#   WSTRB[6]  integral  4     'b1110    
#   WSTRB[7]  integral  4     'b1110    
#   WSTRB[8]  integral  4     'b1110    
#   BRESP     integral  2     'd0       
#   ARADDR    integral  32    'd0       
#   ARVALID   integral  1     'd0       
#   ARLEN     integral  4     'd0       
#   ARSIZE    integral  3     'd0       
#   ARBURST   integral  2     'd0       
#   RRESP     integral  2     'd0       
# --------------------------------------
#  
# UVM_INFO ../tb/score_board.sv(95) @ 675: uvm_test_top.envh.sb [score_board] master and slave data matched
# UVM_INFO ../tb/score_board.sv(87) @ 955: uvm_test_top.envh.sb [score_board] master_monitor ----------------------------------------
# Name        Type      Size  Value       
# ----------------------------------------
# rxtn        axi_xtn   -     @1184       
#   AWADDR    integral  32    'd0         
#   AWLEN     integral  4     'd0         
#   AWSIZE    integral  3     'd0         
#   AWBURST   integral  2     'd0         
#   BRESP     integral  2     'd0         
#   ARADDR    integral  32    'd1822276829
#   raddr[0]  integral  32    'd1822276829
#   raddr[1]  integral  32    'd1822276829
#   raddr[2]  integral  32    'd1822276829
#   raddr[3]  integral  32    'd1822276829
#   raddr[4]  integral  32    'd1822276829
#   raddr[5]  integral  32    'd1822276829
#   raddr[6]  integral  32    'd1822276829
#   raddr[7]  integral  32    'd1822276829
#   raddr[8]  integral  32    'd1822276829
#   ARVALID   integral  1     1           
#   ARLEN     integral  4     8           
#   ARSIZE    integral  3     'd1         
#   ARBURST   integral  2     'd0         
#   RDATA[0]  integral  32    'd57241     
#   RDATA[1]  integral  32    'd49796     
#   RDATA[2]  integral  32    'd14162     
#   RDATA[3]  integral  32    'd62435     
#   RDATA[4]  integral  32    'd55245     
#   RDATA[5]  integral  32    'd9201      
#   RDATA[6]  integral  32    'd36301     
#   RDATA[7]  integral  32    'd54359     
#   RDATA[8]  integral  32    'd11767     
#   RRESP     integral  2     'd0         
# ----------------------------------------
#  slave_monitor ----------------------------------------
# Name        Type      Size  Value       
# ----------------------------------------
# rxtn        axi_xtn   -     @1188       
#   AWADDR    integral  32    'd0         
#   AWLEN     integral  4     'd0         
#   AWSIZE    integral  3     'd0         
#   AWBURST   integral  2     'd0         
#   BRESP     integral  2     'd0         
#   ARADDR    integral  32    'd1822276829
#   raddr[0]  integral  32    'd1822276829
#   raddr[1]  integral  32    'd1822276829
#   raddr[2]  integral  32    'd1822276829
#   raddr[3]  integral  32    'd1822276829
#   raddr[4]  integral  32    'd1822276829
#   raddr[5]  integral  32    'd1822276829
#   raddr[6]  integral  32    'd1822276829
#   raddr[7]  integral  32    'd1822276829
#   raddr[8]  integral  32    'd1822276829
#   ARVALID   integral  1     1           
#   ARLEN     integral  4     8           
#   ARSIZE    integral  3     'd1         
#   ARBURST   integral  2     'd0         
#   RDATA[0]  integral  32    'd57241     
#   RDATA[1]  integral  32    'd49796     
#   RDATA[2]  integral  32    'd14162     
#   RDATA[3]  integral  32    'd62435     
#   RDATA[4]  integral  32    'd55245     
#   RDATA[5]  integral  32    'd9201      
#   RDATA[6]  integral  32    'd36301     
#   RDATA[7]  integral  32    'd54359     
#   RDATA[8]  integral  32    'd11767     
#   RRESP     integral  2     'd0         
# ----------------------------------------
#  
# UVM_INFO ../tb/score_board.sv(95) @ 955: uvm_test_top.envh.sb [score_board] master and slave data matched
# UVM_INFO ../tb/score_board.sv(87) @ 1255: uvm_test_top.envh.sb [score_board] master_monitor ---------------------------------------
# Name        Type      Size  Value      
# ---------------------------------------
# m_xtn       axi_xtn   -     @1176      
#   AWADDR    integral  32    'd151991688
#   waddr[0]  integral  32    'd151991688
#   waddr[1]  integral  32    'd151991688
#   waddr[2]  integral  32    'd151991688
#   waddr[3]  integral  32    'd151991688
#   waddr[4]  integral  32    'd151991688
#   waddr[5]  integral  32    'd151991688
#   waddr[6]  integral  32    'd151991688
#   waddr[7]  integral  32    'd151991688
#   AWLEN     integral  4     'd7        
#   AWSIZE    integral  3     'd1        
#   AWBURST   integral  2     'd0        
#   WDATA[0]  integral  32    'd25275    
#   WDATA[1]  integral  32    'd55168    
#   WDATA[2]  integral  32    'd5117     
#   WDATA[3]  integral  32    'd37498    
#   WDATA[4]  integral  32    'd8558     
#   WDATA[5]  integral  32    'd61551    
#   WDATA[6]  integral  32    'd62810    
#   WDATA[7]  integral  32    'd43271    
#   WSTRB[0]  integral  4     'b11       
#   WSTRB[1]  integral  4     'b11       
#   WSTRB[2]  integral  4     'b11       
#   WSTRB[3]  integral  4     'b11       
#   WSTRB[4]  integral  4     'b11       
#   WSTRB[5]  integral  4     'b11       
#   WSTRB[6]  integral  4     'b11       
#   WSTRB[7]  integral  4     'b11       
#   BRESP     integral  2     'd0        
#   ARADDR    integral  32    'd0        
#   ARVALID   integral  1     'd0        
#   ARLEN     integral  4     'd0        
#   ARSIZE    integral  3     'd0        
#   ARBURST   integral  2     'd0        
#   RRESP     integral  2     'd0        
# ---------------------------------------
#  slave_monitor ---------------------------------------
# Name        Type      Size  Value      
# ---------------------------------------
# m_xtn       axi_xtn   -     @1180      
#   AWADDR    integral  32    'd151991688
#   waddr[0]  integral  32    'd151991688
#   waddr[1]  integral  32    'd151991688
#   waddr[2]  integral  32    'd151991688
#   waddr[3]  integral  32    'd151991688
#   waddr[4]  integral  32    'd151991688
#   waddr[5]  integral  32    'd151991688
#   waddr[6]  integral  32    'd151991688
#   waddr[7]  integral  32    'd151991688
#   AWLEN     integral  4     'd7        
#   AWSIZE    integral  3     'd1        
#   AWBURST   integral  2     'd0        
#   WDATA[0]  integral  32    'd25275    
#   WDATA[1]  integral  32    'd55168    
#   WDATA[2]  integral  32    'd5117     
#   WDATA[3]  integral  32    'd37498    
#   WDATA[4]  integral  32    'd8558     
#   WDATA[5]  integral  32    'd61551    
#   WDATA[6]  integral  32    'd62810    
#   WDATA[7]  integral  32    'd43271    
#   WSTRB[0]  integral  4     'b11       
#   WSTRB[1]  integral  4     'b11       
#   WSTRB[2]  integral  4     'b11       
#   WSTRB[3]  integral  4     'b11       
#   WSTRB[4]  integral  4     'b11       
#   WSTRB[5]  integral  4     'b11       
#   WSTRB[6]  integral  4     'b11       
#   WSTRB[7]  integral  4     'b11       
#   BRESP     integral  2     'd0        
#   ARADDR    integral  32    'd0        
#   ARVALID   integral  1     'd0        
#   ARLEN     integral  4     'd0        
#   ARSIZE    integral  3     'd0        
#   ARBURST   integral  2     'd0        
#   RRESP     integral  2     'd0        
# ---------------------------------------
#  
# UVM_INFO ../tb/score_board.sv(95) @ 1255: uvm_test_top.envh.sb [score_board] master and slave data matched
# UVM_INFO ../tb/score_board.sv(87) @ 1915: uvm_test_top.envh.sb [score_board] master_monitor -----------------------------------------
# Name         Type      Size  Value       
# -----------------------------------------
# rxtn         axi_xtn   -     @1205       
#   AWADDR     integral  32    'd0         
#   AWLEN      integral  4     'd0         
#   AWSIZE     integral  3     'd0         
#   AWBURST    integral  2     'd0         
#   BRESP      integral  2     'd0         
#   ARADDR     integral  32    2507552968  
#   raddr[0]   integral  32    2507552968  
#   raddr[1]   integral  32    2507552968  
#   raddr[2]   integral  32    2507552968  
#   raddr[3]   integral  32    2507552968  
#   raddr[4]   integral  32    2507552968  
#   raddr[5]   integral  32    2507552968  
#   raddr[6]   integral  32    2507552968  
#   raddr[7]   integral  32    2507552968  
#   raddr[8]   integral  32    2507552968  
#   raddr[9]   integral  32    2507552968  
#   raddr[10]  integral  32    2507552968  
#   raddr[11]  integral  32    2507552968  
#   raddr[12]  integral  32    2507552968  
#   raddr[13]  integral  32    2507552968  
#   raddr[14]  integral  32    2507552968  
#   ARVALID    integral  1     1           
#   ARLEN      integral  4     14          
#   ARSIZE     integral  3     'd2         
#   ARBURST    integral  2     'd0         
#   RDATA[0]   integral  32    'd2097015289
#   RDATA[1]   integral  32    3812041926  
#   RDATA[2]   integral  32    3807872197  
#   RDATA[3]   integral  32    3574846122  
#   RDATA[4]   integral  32    'd1924134885
#   RDATA[5]   integral  32    3151131255  
#   RDATA[6]   integral  32    2301810194  
#   RDATA[7]   integral  32    'd1206705039
#   RDATA[8]   integral  32    'd2033215986
#   RDATA[9]   integral  32    3883308750  
#   RDATA[10]  integral  32    4093672168  
#   RDATA[11]  integral  32    3804909253  
#   RDATA[12]  integral  32    'd777537884 
#   RDATA[13]  integral  32    3733858493  
#   RDATA[14]  integral  32    2527811629  
#   RRESP      integral  2     'd0         
# -----------------------------------------
#  slave_monitor -----------------------------------------
# Name         Type      Size  Value       
# -----------------------------------------
# rxtn         axi_xtn   -     @1209       
#   AWADDR     integral  32    'd0         
#   AWLEN      integral  4     'd0         
#   AWSIZE     integral  3     'd0         
#   AWBURST    integral  2     'd0         
#   BRESP      integral  2     'd0         
#   ARADDR     integral  32    2507552968  
#   raddr[0]   integral  32    2507552968  
#   raddr[1]   integral  32    2507552968  
#   raddr[2]   integral  32    2507552968  
#   raddr[3]   integral  32    2507552968  
#   raddr[4]   integral  32    2507552968  
#   raddr[5]   integral  32    2507552968  
#   raddr[6]   integral  32    2507552968  
#   raddr[7]   integral  32    2507552968  
#   raddr[8]   integral  32    2507552968  
#   raddr[9]   integral  32    2507552968  
#   raddr[10]  integral  32    2507552968  
#   raddr[11]  integral  32    2507552968  
#   raddr[12]  integral  32    2507552968  
#   raddr[13]  integral  32    2507552968  
#   raddr[14]  integral  32    2507552968  
#   ARVALID    integral  1     1           
#   ARLEN      integral  4     14          
#   ARSIZE     integral  3     'd2         
#   ARBURST    integral  2     'd0         
#   RDATA[0]   integral  32    'd2097015289
#   RDATA[1]   integral  32    3812041926  
#   RDATA[2]   integral  32    3807872197  
#   RDATA[3]   integral  32    3574846122  
#   RDATA[4]   integral  32    'd1924134885
#   RDATA[5]   integral  32    3151131255  
#   RDATA[6]   integral  32    2301810194  
#   RDATA[7]   integral  32    'd1206705039
#   RDATA[8]   integral  32    'd2033215986
#   RDATA[9]   integral  32    3883308750  
#   RDATA[10]  integral  32    4093672168  
#   RDATA[11]  integral  32    3804909253  
#   RDATA[12]  integral  32    'd777537884 
#   RDATA[13]  integral  32    3733858493  
#   RDATA[14]  integral  32    2527811629  
#   RRESP      integral  2     'd0         
# -----------------------------------------
#  
# UVM_INFO ../tb/score_board.sv(95) @ 1915: uvm_test_top.envh.sb [score_board] master and slave data matched
# UVM_INFO ../tb/score_board.sv(87) @ 2195: uvm_test_top.envh.sb [score_board] master_monitor ----------------------------------------
# Name         Type      Size  Value      
# ----------------------------------------
# m_xtn        axi_xtn   -     @1213      
#   AWADDR     integral  32    'd618396213
#   waddr[0]   integral  32    'd618396213
#   waddr[1]   integral  32    'd618396213
#   waddr[2]   integral  32    'd618396213
#   waddr[3]   integral  32    'd618396213
#   waddr[4]   integral  32    'd618396213
#   waddr[5]   integral  32    'd618396213
#   waddr[6]   integral  32    'd618396213
#   waddr[7]   integral  32    'd618396213
#   waddr[8]   integral  32    'd618396213
#   waddr[9]   integral  32    'd618396213
#   waddr[10]  integral  32    'd618396213
#   waddr[11]  integral  32    'd618396213
#   waddr[12]  integral  32    'd618396213
#   waddr[13]  integral  32    'd618396213
#   waddr[14]  integral  32    'd618396213
#   AWLEN      integral  4     14         
#   AWSIZE     integral  3     'd1        
#   AWBURST    integral  2     'd0        
#   WDATA[0]   integral  32    'd36826    
#   WDATA[1]   integral  32    'd25012    
#   WDATA[2]   integral  32    'd33138    
#   WDATA[3]   integral  32    'd43338    
#   WDATA[4]   integral  32    'd7177     
#   WDATA[5]   integral  32    'd3529     
#   WDATA[6]   integral  32    'd12975    
#   WDATA[7]   integral  32    'd64589    
#   WDATA[8]   integral  32    'd963      
#   WDATA[9]   integral  32    'd6336     
#   WDATA[10]  integral  32    'd35817    
#   WDATA[11]  integral  32    'd62915    
#   WDATA[12]  integral  32    'd59080    
#   WDATA[13]  integral  32    'd37745    
#   WDATA[14]  integral  32    'd6623     
#   WSTRB[0]   integral  4     'b110      
#   WSTRB[1]   integral  4     'b110      
#   WSTRB[2]   integral  4     'b110      
#   WSTRB[3]   integral  4     'b110      
#   WSTRB[4]   integral  4     'b110      
#   WSTRB[5]   integral  4     'b110      
#   WSTRB[6]   integral  4     'b110      
#   WSTRB[7]   integral  4     'b110      
#   WSTRB[8]   integral  4     'b110      
#   WSTRB[9]   integral  4     'b110      
#   WSTRB[10]  integral  4     'b110      
#   WSTRB[11]  integral  4     'b110      
#   WSTRB[12]  integral  4     'b110      
#   WSTRB[13]  integral  4     'b110      
#   WSTRB[14]  integral  4     'b110      
#   BRESP      integral  2     'd0        
#   ARADDR     integral  32    'd0        
#   ARVALID    integral  1     'd0        
#   ARLEN      integral  4     'd0        
#   ARSIZE     integral  3     'd0        
#   ARBURST    integral  2     'd0        
#   RRESP      integral  2     'd0        
# ----------------------------------------
#  slave_monitor ----------------------------------------
# Name         Type      Size  Value      
# ----------------------------------------
# m_xtn        axi_xtn   -     @1217      
#   AWADDR     integral  32    'd618396213
#   waddr[0]   integral  32    'd618396213
#   waddr[1]   integral  32    'd618396213
#   waddr[2]   integral  32    'd618396213
#   waddr[3]   integral  32    'd618396213
#   waddr[4]   integral  32    'd618396213
#   waddr[5]   integral  32    'd618396213
#   waddr[6]   integral  32    'd618396213
#   waddr[7]   integral  32    'd618396213
#   waddr[8]   integral  32    'd618396213
#   waddr[9]   integral  32    'd618396213
#   waddr[10]  integral  32    'd618396213
#   waddr[11]  integral  32    'd618396213
#   waddr[12]  integral  32    'd618396213
#   waddr[13]  integral  32    'd618396213
#   waddr[14]  integral  32    'd618396213
#   AWLEN      integral  4     14         
#   AWSIZE     integral  3     'd1        
#   AWBURST    integral  2     'd0        
#   WDATA[0]   integral  32    'd36826    
#   WDATA[1]   integral  32    'd25012    
#   WDATA[2]   integral  32    'd33138    
#   WDATA[3]   integral  32    'd43338    
#   WDATA[4]   integral  32    'd7177     
#   WDATA[5]   integral  32    'd3529     
#   WDATA[6]   integral  32    'd12975    
#   WDATA[7]   integral  32    'd64589    
#   WDATA[8]   integral  32    'd963      
#   WDATA[9]   integral  32    'd6336     
#   WDATA[10]  integral  32    'd35817    
#   WDATA[11]  integral  32    'd62915    
#   WDATA[12]  integral  32    'd59080    
#   WDATA[13]  integral  32    'd37745    
#   WDATA[14]  integral  32    'd6623     
#   WSTRB[0]   integral  4     'b110      
#   WSTRB[1]   integral  4     'b110      
#   WSTRB[2]   integral  4     'b110      
#   WSTRB[3]   integral  4     'b110      
#   WSTRB[4]   integral  4     'b110      
#   WSTRB[5]   integral  4     'b110      
#   WSTRB[6]   integral  4     'b110      
#   WSTRB[7]   integral  4     'b110      
#   WSTRB[8]   integral  4     'b110      
#   WSTRB[9]   integral  4     'b110      
#   WSTRB[10]  integral  4     'b110      
#   WSTRB[11]  integral  4     'b110      
#   WSTRB[12]  integral  4     'b110      
#   WSTRB[13]  integral  4     'b110      
#   WSTRB[14]  integral  4     'b110      
#   BRESP      integral  2     'd0        
#   ARADDR     integral  32    'd0        
#   ARVALID    integral  1     'd0        
#   ARLEN      integral  4     'd0        
#   ARSIZE     integral  3     'd0        
#   ARBURST    integral  2     'd0        
#   RRESP      integral  2     'd0        
# ----------------------------------------
#  
# UVM_INFO ../tb/score_board.sv(95) @ 2195: uvm_test_top.envh.sb [score_board] master and slave data matched
# UVM_INFO ../tb/score_board.sv(87) @ 2405: uvm_test_top.envh.sb [score_board] master_monitor --------------------------------------
# Name        Type      Size  Value     
# --------------------------------------
# rxtn        axi_xtn   -     @1233     
#   AWADDR    integral  32    'd0       
#   AWLEN     integral  4     'd0       
#   AWSIZE    integral  3     'd0       
#   AWBURST   integral  2     'd0       
#   BRESP     integral  2     'd0       
#   ARADDR    integral  32    2728206846
#   raddr[0]  integral  32    2728206846
#   raddr[1]  integral  32    2728206846
#   raddr[2]  integral  32    2728206846
#   raddr[3]  integral  32    2728206846
#   raddr[4]  integral  32    2728206846
#   raddr[5]  integral  32    2728206846
#   raddr[6]  integral  32    2728206846
#   raddr[7]  integral  32    2728206846
#   ARVALID   integral  1     1         
#   ARLEN     integral  4     'd7       
#   ARSIZE    integral  3     'd0       
#   ARBURST   integral  2     'd0       
#   RDATA[0]  integral  32    'd167     
#   RDATA[1]  integral  32    'd239     
#   RDATA[2]  integral  32    'd115     
#   RDATA[3]  integral  32    'd59      
#   RDATA[4]  integral  32    'd100     
#   RDATA[5]  integral  32    'd120     
#   RDATA[6]  integral  32    'd204     
#   RDATA[7]  integral  32    'd32      
#   RRESP     integral  2     'd0       
# --------------------------------------
#  slave_monitor --------------------------------------
# Name        Type      Size  Value     
# --------------------------------------
# rxtn        axi_xtn   -     @1237     
#   AWADDR    integral  32    'd0       
#   AWLEN     integral  4     'd0       
#   AWSIZE    integral  3     'd0       
#   AWBURST   integral  2     'd0       
#   BRESP     integral  2     'd0       
#   ARADDR    integral  32    2728206846
#   raddr[0]  integral  32    2728206846
#   raddr[1]  integral  32    2728206846
#   raddr[2]  integral  32    2728206846
#   raddr[3]  integral  32    2728206846
#   raddr[4]  integral  32    2728206846
#   raddr[5]  integral  32    2728206846
#   raddr[6]  integral  32    2728206846
#   raddr[7]  integral  32    2728206846
#   ARVALID   integral  1     1         
#   ARLEN     integral  4     'd7       
#   ARSIZE    integral  3     'd0       
#   ARBURST   integral  2     'd0       
#   RDATA[0]  integral  32    'd167     
#   RDATA[1]  integral  32    'd239     
#   RDATA[2]  integral  32    'd115     
#   RDATA[3]  integral  32    'd59      
#   RDATA[4]  integral  32    'd100     
#   RDATA[5]  integral  32    'd120     
#   RDATA[6]  integral  32    'd204     
#   RDATA[7]  integral  32    'd32      
#   RRESP     integral  2     'd0       
# --------------------------------------
#  
# UVM_INFO ../tb/score_board.sv(95) @ 2405: uvm_test_top.envh.sb [score_board] master and slave data matched
# UVM_INFO ../tb/score_board.sv(87) @ 2445: uvm_test_top.envh.sb [score_board] master_monitor ---------------------------------
# Name        Type      Size  Value
# ---------------------------------
# rxtn        axi_xtn   -     @1261
#   AWADDR    integral  32    'd0  
#   AWLEN     integral  4     'd0  
#   AWSIZE    integral  3     'd0  
#   AWBURST   integral  2     'd0  
#   BRESP     integral  2     'd0  
#   ARADDR    integral  32    'd0  
#   raddr[0]  integral  32    'd0  
#   ARVALID   integral  1     'd0  
#   ARLEN     integral  4     'd0  
#   ARSIZE    integral  3     'd0  
#   ARBURST   integral  2     'd0  
#   RDATA[0]  integral  32    'd19 
#   RRESP     integral  2     'd0  
# ---------------------------------
#  slave_monitor ---------------------------------
# Name        Type      Size  Value
# ---------------------------------
# rxtn        axi_xtn   -     @1265
#   AWADDR    integral  32    'd0  
#   AWLEN     integral  4     'd0  
#   AWSIZE    integral  3     'd0  
#   AWBURST   integral  2     'd0  
#   BRESP     integral  2     'd0  
#   ARADDR    integral  32    'd0  
#   raddr[0]  integral  32    'd0  
#   ARVALID   integral  1     'd0  
#   ARLEN     integral  4     'd0  
#   ARSIZE    integral  3     'd0  
#   ARBURST   integral  2     'd0  
#   RDATA[0]  integral  32    'd19 
#   RRESP     integral  2     'd0  
# ---------------------------------
#  
# UVM_INFO ../tb/score_board.sv(95) @ 2445: uvm_test_top.envh.sb [score_board] master and slave data matched
# UVM_INFO ../tb/score_board.sv(87) @ 2585: uvm_test_top.envh.sb [score_board] master_monitor --------------------------------------
# Name        Type      Size  Value     
# --------------------------------------
# rxtn        axi_xtn   -     @1285     
#   AWADDR    integral  32    'd0       
#   AWLEN     integral  4     'd0       
#   AWSIZE    integral  3     'd0       
#   AWBURST   integral  2     'd0       
#   BRESP     integral  2     'd0       
#   ARADDR    integral  32    2953115591
#   raddr[0]  integral  32    2953115591
#   raddr[1]  integral  32    2953115591
#   ARVALID   integral  1     1         
#   ARLEN     integral  4     'd1       
#   ARSIZE    integral  3     'd1       
#   ARBURST   integral  2     'd0       
#   RDATA[0]  integral  32    'd134     
#   RDATA[1]  integral  32    'd169     
#   RRESP     integral  2     'd0       
# --------------------------------------
#  slave_monitor --------------------------------------
# Name        Type      Size  Value     
# --------------------------------------
# rxtn        axi_xtn   -     @1289     
#   AWADDR    integral  32    'd0       
#   AWLEN     integral  4     'd0       
#   AWSIZE    integral  3     'd0       
#   AWBURST   integral  2     'd0       
#   BRESP     integral  2     'd0       
#   ARADDR    integral  32    2953115591
#   raddr[0]  integral  32    2953115591
#   raddr[1]  integral  32    2953115591
#   ARVALID   integral  1     1         
#   ARLEN     integral  4     'd1       
#   ARSIZE    integral  3     'd1       
#   ARBURST   integral  2     'd0       
#   RDATA[0]  integral  32    'd134     
#   RDATA[1]  integral  32    'd169     
#   RRESP     integral  2     'd0       
# --------------------------------------
#  
# UVM_INFO ../tb/score_board.sv(95) @ 2585: uvm_test_top.envh.sb [score_board] master and slave data matched
# UVM_INFO ../tb/score_board.sv(87) @ 2665: uvm_test_top.envh.sb [score_board] master_monitor ---------------------------------
# Name        Type      Size  Value
# ---------------------------------
# rxtn        axi_xtn   -     @1321
#   AWADDR    integral  32    'd0  
#   AWLEN     integral  4     'd0  
#   AWSIZE    integral  3     'd0  
#   AWBURST   integral  2     'd0  
#   BRESP     integral  2     'd0  
#   ARADDR    integral  32    'd0  
#   raddr[0]  integral  32    'd0  
#   ARVALID   integral  1     'd0  
#   ARLEN     integral  4     'd0  
#   ARSIZE    integral  3     'd0  
#   ARBURST   integral  2     'd0  
#   RDATA[0]  integral  32    'd107
#   RRESP     integral  2     'd0  
# ---------------------------------
#  slave_monitor ---------------------------------
# Name        Type      Size  Value
# ---------------------------------
# rxtn        axi_xtn   -     @1325
#   AWADDR    integral  32    'd0  
#   AWLEN     integral  4     'd0  
#   AWSIZE    integral  3     'd0  
#   AWBURST   integral  2     'd0  
#   BRESP     integral  2     'd0  
#   ARADDR    integral  32    'd0  
#   raddr[0]  integral  32    'd0  
#   ARVALID   integral  1     'd0  
#   ARLEN     integral  4     'd0  
#   ARSIZE    integral  3     'd0  
#   ARBURST   integral  2     'd0  
#   RDATA[0]  integral  32    'd107
#   RRESP     integral  2     'd0  
# ---------------------------------
#  
# UVM_INFO ../tb/score_board.sv(95) @ 2665: uvm_test_top.envh.sb [score_board] master and slave data matched
# UVM_INFO ../tb/score_board.sv(87) @ 2955: uvm_test_top.envh.sb [score_board] master_monitor ---------------------------------------
# Name         Type      Size  Value     
# ---------------------------------------
# m_xtn        axi_xtn   -     @1241     
#   AWADDR     integral  32    2894465172
#   waddr[0]   integral  32    2894465172
#   waddr[1]   integral  32    2894465172
#   waddr[2]   integral  32    2894465172
#   waddr[3]   integral  32    2894465172
#   waddr[4]   integral  32    2894465172
#   waddr[5]   integral  32    2894465172
#   waddr[6]   integral  32    2894465172
#   waddr[7]   integral  32    2894465172
#   waddr[8]   integral  32    2894465172
#   waddr[9]   integral  32    2894465172
#   waddr[10]  integral  32    2894465172
#   waddr[11]  integral  32    2894465172
#   AWLEN      integral  4     11        
#   AWSIZE     integral  3     'd0       
#   AWBURST    integral  2     'd0       
#   WDATA[0]   integral  32    'd186     
#   WDATA[1]   integral  32    'd91      
#   WDATA[2]   integral  32    'd122     
#   WDATA[3]   integral  32    'd70      
#   WDATA[4]   integral  32    'd38      
#   WDATA[5]   integral  32    'd214     
#   WDATA[6]   integral  32    'd233     
#   WDATA[7]   integral  32    'd48      
#   WDATA[8]   integral  32    'd225     
#   WDATA[9]   integral  32    'd59      
#   WDATA[10]  integral  32    'd210     
#   WDATA[11]  integral  32    'd34      
#   WSTRB[0]   integral  4     'b1       
#   WSTRB[1]   integral  4     'b1       
#   WSTRB[2]   integral  4     'b1       
#   WSTRB[3]   integral  4     'b1       
#   WSTRB[4]   integral  4     'b1       
#   WSTRB[5]   integral  4     'b1       
#   WSTRB[6]   integral  4     'b1       
#   WSTRB[7]   integral  4     'b1       
#   WSTRB[8]   integral  4     'b1       
#   WSTRB[9]   integral  4     'b1       
#   WSTRB[10]  integral  4     'b1       
#   WSTRB[11]  integral  4     'b1       
#   BRESP      integral  2     'd0       
#   ARADDR     integral  32    'd0       
#   ARVALID    integral  1     'd0       
#   ARLEN      integral  4     'd0       
#   ARSIZE     integral  3     'd0       
#   ARBURST    integral  2     'd0       
#   RRESP      integral  2     'd0       
# ---------------------------------------
#  slave_monitor ---------------------------------------
# Name         Type      Size  Value     
# ---------------------------------------
# m_xtn        axi_xtn   -     @1245     
#   AWADDR     integral  32    2894465172
#   waddr[0]   integral  32    2894465172
#   waddr[1]   integral  32    2894465172
#   waddr[2]   integral  32    2894465172
#   waddr[3]   integral  32    2894465172
#   waddr[4]   integral  32    2894465172
#   waddr[5]   integral  32    2894465172
#   waddr[6]   integral  32    2894465172
#   waddr[7]   integral  32    2894465172
#   waddr[8]   integral  32    2894465172
#   waddr[9]   integral  32    2894465172
#   waddr[10]  integral  32    2894465172
#   waddr[11]  integral  32    2894465172
#   AWLEN      integral  4     11        
#   AWSIZE     integral  3     'd0       
#   AWBURST    integral  2     'd0       
#   WDATA[0]   integral  32    'd186     
#   WDATA[1]   integral  32    'd91      
#   WDATA[2]   integral  32    'd122     
#   WDATA[3]   integral  32    'd70      
#   WDATA[4]   integral  32    'd38      
#   WDATA[5]   integral  32    'd214     
#   WDATA[6]   integral  32    'd233     
#   WDATA[7]   integral  32    'd48      
#   WDATA[8]   integral  32    'd225     
#   WDATA[9]   integral  32    'd59      
#   WDATA[10]  integral  32    'd210     
#   WDATA[11]  integral  32    'd34      
#   WSTRB[0]   integral  4     'b1       
#   WSTRB[1]   integral  4     'b1       
#   WSTRB[2]   integral  4     'b1       
#   WSTRB[3]   integral  4     'b1       
#   WSTRB[4]   integral  4     'b1       
#   WSTRB[5]   integral  4     'b1       
#   WSTRB[6]   integral  4     'b1       
#   WSTRB[7]   integral  4     'b1       
#   WSTRB[8]   integral  4     'b1       
#   WSTRB[9]   integral  4     'b1       
#   WSTRB[10]  integral  4     'b1       
#   WSTRB[11]  integral  4     'b1       
#   BRESP      integral  2     'd0       
#   ARADDR     integral  32    'd0       
#   ARVALID    integral  1     'd0       
#   ARLEN      integral  4     'd0       
#   ARSIZE     integral  3     'd0       
#   ARBURST    integral  2     'd0       
#   RRESP      integral  2     'd0       
# ---------------------------------------
#  
# UVM_INFO ../tb/score_board.sv(95) @ 2955: uvm_test_top.envh.sb [score_board] master and slave data matched
# UVM_INFO ../tb/score_board.sv(87) @ 3075: uvm_test_top.envh.sb [score_board] master_monitor ---------------------------------------
# Name        Type      Size  Value      
# ---------------------------------------
# rxtn        axi_xtn   -     @1341      
#   AWADDR    integral  32    'd0        
#   AWLEN     integral  4     'd0        
#   AWSIZE    integral  3     'd0        
#   AWBURST   integral  2     'd0        
#   BRESP     integral  2     'd0        
#   ARADDR    integral  32    'd277212052
#   raddr[0]  integral  32    'd277212052
#   raddr[1]  integral  32    'd277212052
#   raddr[2]  integral  32    'd277212052
#   raddr[3]  integral  32    'd277212052
#   raddr[4]  integral  32    'd277212052
#   raddr[5]  integral  32    'd277212052
#   ARVALID   integral  1     1          
#   ARLEN     integral  4     'd5        
#   ARSIZE    integral  3     'd1        
#   ARBURST   integral  2     'd0        
#   RDATA[0]  integral  32    'd10965    
#   RDATA[1]  integral  32    'd18946    
#   RDATA[2]  integral  32    'd16046    
#   RDATA[3]  integral  32    'd59677    
#   RDATA[4]  integral  32    'd29391    
#   RDATA[5]  integral  32    'd18723    
#   RRESP     integral  2     'd0        
# ---------------------------------------
#  slave_monitor ---------------------------------------
# Name        Type      Size  Value      
# ---------------------------------------
# rxtn        axi_xtn   -     @1345      
#   AWADDR    integral  32    'd0        
#   AWLEN     integral  4     'd0        
#   AWSIZE    integral  3     'd0        
#   AWBURST   integral  2     'd0        
#   BRESP     integral  2     'd0        
#   ARADDR    integral  32    'd277212052
#   raddr[0]  integral  32    'd277212052
#   raddr[1]  integral  32    'd277212052
#   raddr[2]  integral  32    'd277212052
#   raddr[3]  integral  32    'd277212052
#   raddr[4]  integral  32    'd277212052
#   raddr[5]  integral  32    'd277212052
#   ARVALID   integral  1     1          
#   ARLEN     integral  4     'd5        
#   ARSIZE    integral  3     'd1        
#   ARBURST   integral  2     'd0        
#   RDATA[0]  integral  32    'd10965    
#   RDATA[1]  integral  32    'd18946    
#   RDATA[2]  integral  32    'd16046    
#   RDATA[3]  integral  32    'd59677    
#   RDATA[4]  integral  32    'd29391    
#   RDATA[5]  integral  32    'd18723    
#   RRESP     integral  2     'd0        
# ---------------------------------------
#  
# UVM_INFO ../tb/score_board.sv(95) @ 3075: uvm_test_top.envh.sb [score_board] master and slave data matched
# UVM_INFO ../tb/score_board.sv(87) @ 3085: uvm_test_top.envh.sb [score_board] master_monitor ---------------------------------------
# Name        Type      Size  Value      
# ---------------------------------------
# m_xtn       axi_xtn   -     @1269      
#   AWADDR    integral  32    'd258377914
#   waddr[0]  integral  32    'd258377914
#   waddr[1]  integral  32    'd258377914
#   AWLEN     integral  4     'd1        
#   AWSIZE    integral  3     'd2        
#   AWBURST   integral  2     'd0        
#   WDATA[0]  integral  32    'd2686     
#   WDATA[1]  integral  32    'd61993    
#   WSTRB[0]  integral  4     'b1100     
#   WSTRB[1]  integral  4     'b1100     
#   BRESP     integral  2     'd0        
#   ARADDR    integral  32    'd0        
#   ARVALID   integral  1     'd0        
#   ARLEN     integral  4     'd0        
#   ARSIZE    integral  3     'd0        
#   ARBURST   integral  2     'd0        
#   RRESP     integral  2     'd0        
# ---------------------------------------
#  slave_monitor ---------------------------------------
# Name        Type      Size  Value      
# ---------------------------------------
# m_xtn       axi_xtn   -     @1273      
#   AWADDR    integral  32    'd258377914
#   waddr[0]  integral  32    'd258377914
#   waddr[1]  integral  32    'd258377914
#   AWLEN     integral  4     'd1        
#   AWSIZE    integral  3     'd2        
#   AWBURST   integral  2     'd0        
#   WDATA[0]  integral  32    'd2686     
#   WDATA[1]  integral  32    'd61993    
#   WSTRB[0]  integral  4     'b1100     
#   WSTRB[1]  integral  4     'b1100     
#   BRESP     integral  2     'd0        
#   ARADDR    integral  32    'd0        
#   ARVALID   integral  1     'd0        
#   ARLEN     integral  4     'd0        
#   ARSIZE    integral  3     'd0        
#   ARBURST   integral  2     'd0        
#   RRESP     integral  2     'd0        
# ---------------------------------------
#  
# UVM_INFO ../tb/score_board.sv(95) @ 3085: uvm_test_top.envh.sb [score_board] master and slave data matched
# UVM_INFO ../tb/score_board.sv(87) @ 3135: uvm_test_top.envh.sb [score_board] master_monitor ---------------------------------
# Name        Type      Size  Value
# ---------------------------------
# rxtn        axi_xtn   -     @1369
#   AWADDR    integral  32    'd0  
#   AWLEN     integral  4     'd0  
#   AWSIZE    integral  3     'd0  
#   AWBURST   integral  2     'd0  
#   BRESP     integral  2     'd0  
#   ARADDR    integral  32    'd0  
#   raddr[0]  integral  32    'd0  
#   ARVALID   integral  1     'd0  
#   ARLEN     integral  4     'd0  
#   ARSIZE    integral  3     'd0  
#   ARBURST   integral  2     'd0  
#   RDATA[0]  integral  32    'd10 
#   RRESP     integral  2     'd0  
# ---------------------------------
#  slave_monitor ---------------------------------
# Name        Type      Size  Value
# ---------------------------------
# rxtn        axi_xtn   -     @1373
#   AWADDR    integral  32    'd0  
#   AWLEN     integral  4     'd0  
#   AWSIZE    integral  3     'd0  
#   AWBURST   integral  2     'd0  
#   BRESP     integral  2     'd0  
#   ARADDR    integral  32    'd0  
#   raddr[0]  integral  32    'd0  
#   ARVALID   integral  1     'd0  
#   ARLEN     integral  4     'd0  
#   ARSIZE    integral  3     'd0  
#   ARBURST   integral  2     'd0  
#   RDATA[0]  integral  32    'd10 
#   RRESP     integral  2     'd0  
# ---------------------------------
#  
# UVM_INFO ../tb/score_board.sv(95) @ 3135: uvm_test_top.envh.sb [score_board] master and slave data matched
# UVM_INFO ../tb/score_board.sv(87) @ 3215: uvm_test_top.envh.sb [score_board] master_monitor ---------------------------------
# Name        Type      Size  Value
# ---------------------------------
# rxtn        axi_xtn   -     @1405
#   AWADDR    integral  32    'd0  
#   AWLEN     integral  4     'd0  
#   AWSIZE    integral  3     'd0  
#   AWBURST   integral  2     'd0  
#   BRESP     integral  2     'd0  
#   ARADDR    integral  32    'd0  
#   raddr[0]  integral  32    'd0  
#   ARVALID   integral  1     'd0  
#   ARLEN     integral  4     'd0  
#   ARSIZE    integral  3     'd0  
#   ARBURST   integral  2     'd0  
#   RDATA[0]  integral  32    'd202
#   RRESP     integral  2     'd0  
# ---------------------------------
#  slave_monitor ---------------------------------
# Name        Type      Size  Value
# ---------------------------------
# rxtn        axi_xtn   -     @1409
#   AWADDR    integral  32    'd0  
#   AWLEN     integral  4     'd0  
#   AWSIZE    integral  3     'd0  
#   AWBURST   integral  2     'd0  
#   BRESP     integral  2     'd0  
#   ARADDR    integral  32    'd0  
#   raddr[0]  integral  32    'd0  
#   ARVALID   integral  1     'd0  
#   ARLEN     integral  4     'd0  
#   ARSIZE    integral  3     'd0  
#   ARBURST   integral  2     'd0  
#   RDATA[0]  integral  32    'd202
#   RRESP     integral  2     'd0  
# ---------------------------------
#  
# UVM_INFO ../tb/score_board.sv(95) @ 3215: uvm_test_top.envh.sb [score_board] master and slave data matched
# UVM_INFO ../tb/score_board.sv(87) @ 3365: uvm_test_top.envh.sb [score_board] master_monitor ---------------------------------------
# Name        Type      Size  Value      
# ---------------------------------------
# m_xtn       axi_xtn   -     @1293      
#   AWADDR    integral  32    'd110490629
#   waddr[0]  integral  32    'd110490629
#   waddr[1]  integral  32    'd110490629
#   waddr[2]  integral  32    'd110490629
#   waddr[3]  integral  32    'd110490629
#   AWLEN     integral  4     'd3        
#   AWSIZE    integral  3     'd1        
#   AWBURST   integral  2     'd0        
#   WDATA[0]  integral  32    'd16908    
#   WDATA[1]  integral  32    'd31226    
#   WDATA[2]  integral  32    'd47175    
#   WDATA[3]  integral  32    'd28676    
#   WSTRB[0]  integral  4     'b110      
#   WSTRB[1]  integral  4     'b110      
#   WSTRB[2]  integral  4     'b110      
#   WSTRB[3]  integral  4     'b110      
#   BRESP     integral  2     'd0        
#   ARADDR    integral  32    'd0        
#   ARVALID   integral  1     'd0        
#   ARLEN     integral  4     'd0        
#   ARSIZE    integral  3     'd0        
#   ARBURST   integral  2     'd0        
#   RRESP     integral  2     'd0        
# ---------------------------------------
#  slave_monitor ---------------------------------------
# Name        Type      Size  Value      
# ---------------------------------------
# m_xtn       axi_xtn   -     @1297      
#   AWADDR    integral  32    'd110490629
#   waddr[0]  integral  32    'd110490629
#   waddr[1]  integral  32    'd110490629
#   waddr[2]  integral  32    'd110490629
#   waddr[3]  integral  32    'd110490629
#   AWLEN     integral  4     'd3        
#   AWSIZE    integral  3     'd1        
#   AWBURST   integral  2     'd0        
#   WDATA[0]  integral  32    'd16908    
#   WDATA[1]  integral  32    'd31226    
#   WDATA[2]  integral  32    'd47175    
#   WDATA[3]  integral  32    'd28676    
#   WSTRB[0]  integral  4     'b110      
#   WSTRB[1]  integral  4     'b110      
#   WSTRB[2]  integral  4     'b110      
#   WSTRB[3]  integral  4     'b110      
#   BRESP     integral  2     'd0        
#   ARADDR    integral  32    'd0        
#   ARVALID   integral  1     'd0        
#   ARLEN     integral  4     'd0        
#   ARSIZE    integral  3     'd0        
#   ARBURST   integral  2     'd0        
#   RRESP     integral  2     'd0        
# ---------------------------------------
#  
# UVM_INFO ../tb/score_board.sv(95) @ 3365: uvm_test_top.envh.sb [score_board] master and slave data matched
# UVM_INFO ../tb/score_board.sv(87) @ 3515: uvm_test_top.envh.sb [score_board] master_monitor ----------------------------------------
# Name        Type      Size  Value       
# ----------------------------------------
# rxtn        axi_xtn   -     @1433       
#   AWADDR    integral  32    'd0         
#   AWLEN     integral  4     'd0         
#   AWSIZE    integral  3     'd0         
#   AWBURST   integral  2     'd0         
#   BRESP     integral  2     'd0         
#   ARADDR    integral  32    'd1931583678
#   raddr[0]  integral  32    'd1931583678
#   raddr[1]  integral  32    'd1931583678
#   raddr[2]  integral  32    'd1931583678
#   raddr[3]  integral  32    'd1931583678
#   raddr[4]  integral  32    'd1931583678
#   ARVALID   integral  1     1           
#   ARLEN     integral  4     'd4         
#   ARSIZE    integral  3     'd0         
#   ARBURST   integral  2     'd0         
#   RDATA[0]  integral  32    'd49        
#   RDATA[1]  integral  32    'd104       
#   RDATA[2]  integral  32    'd46        
#   RDATA[3]  integral  32    'd196       
#   RDATA[4]  integral  32    'd75        
#   RRESP     integral  2     'd0         
# ----------------------------------------
#  slave_monitor ----------------------------------------
# Name        Type      Size  Value       
# ----------------------------------------
# rxtn        axi_xtn   -     @1437       
#   AWADDR    integral  32    'd0         
#   AWLEN     integral  4     'd0         
#   AWSIZE    integral  3     'd0         
#   AWBURST   integral  2     'd0         
#   BRESP     integral  2     'd0         
#   ARADDR    integral  32    'd1931583678
#   raddr[0]  integral  32    'd1931583678
#   raddr[1]  integral  32    'd1931583678
#   raddr[2]  integral  32    'd1931583678
#   raddr[3]  integral  32    'd1931583678
#   raddr[4]  integral  32    'd1931583678
#   ARVALID   integral  1     1           
#   ARLEN     integral  4     'd4         
#   ARSIZE    integral  3     'd0         
#   ARBURST   integral  2     'd0         
#   RDATA[0]  integral  32    'd49        
#   RDATA[1]  integral  32    'd104       
#   RDATA[2]  integral  32    'd46        
#   RDATA[3]  integral  32    'd196       
#   RDATA[4]  integral  32    'd75        
#   RRESP     integral  2     'd0         
# ----------------------------------------
#  
# UVM_INFO ../tb/score_board.sv(95) @ 3515: uvm_test_top.envh.sb [score_board] master and slave data matched
# UVM_INFO ../tb/score_board.sv(87) @ 3585: uvm_test_top.envh.sb [score_board] master_monitor ---------------------------------
# Name        Type      Size  Value
# ---------------------------------
# rxtn        axi_xtn   -     @1461
#   AWADDR    integral  32    'd0  
#   AWLEN     integral  4     'd0  
#   AWSIZE    integral  3     'd0  
#   AWBURST   integral  2     'd0  
#   BRESP     integral  2     'd0  
#   ARADDR    integral  32    'd0  
#   raddr[0]  integral  32    'd0  
#   ARVALID   integral  1     'd0  
#   ARLEN     integral  4     'd0  
#   ARSIZE    integral  3     'd0  
#   ARBURST   integral  2     'd0  
#   RDATA[0]  integral  32    'd120
#   RRESP     integral  2     'd0  
# ---------------------------------
#  slave_monitor ---------------------------------
# Name        Type      Size  Value
# ---------------------------------
# rxtn        axi_xtn   -     @1465
#   AWADDR    integral  32    'd0  
#   AWLEN     integral  4     'd0  
#   AWSIZE    integral  3     'd0  
#   AWBURST   integral  2     'd0  
#   BRESP     integral  2     'd0  
#   ARADDR    integral  32    'd0  
#   raddr[0]  integral  32    'd0  
#   ARVALID   integral  1     'd0  
#   ARLEN     integral  4     'd0  
#   ARSIZE    integral  3     'd0  
#   ARBURST   integral  2     'd0  
#   RDATA[0]  integral  32    'd120
#   RRESP     integral  2     'd0  
# ---------------------------------
#  
# UVM_INFO ../tb/score_board.sv(95) @ 3585: uvm_test_top.envh.sb [score_board] master and slave data matched
# UVM_INFO ../tb/score_board.sv(87) @ 3855: uvm_test_top.envh.sb [score_board] master_monitor --------------------------------------
# Name        Type      Size  Value     
# --------------------------------------
# m_xtn       axi_xtn   -     @1313     
#   AWADDR    integral  32    2946372740
#   waddr[0]  integral  32    2946372740
#   waddr[1]  integral  32    2946372740
#   waddr[2]  integral  32    2946372740
#   waddr[3]  integral  32    2946372740
#   waddr[4]  integral  32    2946372740
#   waddr[5]  integral  32    2946372740
#   waddr[6]  integral  32    2946372740
#   waddr[7]  integral  32    2946372740
#   AWLEN     integral  4     'd7       
#   AWSIZE    integral  3     'd0       
#   AWBURST   integral  2     'd0       
#   WDATA[0]  integral  32    'd126     
#   WDATA[1]  integral  32    'd130     
#   WDATA[2]  integral  32    'd100     
#   WDATA[3]  integral  32    'd123     
#   WDATA[4]  integral  32    'd191     
#   WDATA[5]  integral  32    'd73      
#   WDATA[6]  integral  32    'd45      
#   WDATA[7]  integral  32    'd182     
#   WSTRB[0]  integral  4     'b1       
#   WSTRB[1]  integral  4     'b1       
#   WSTRB[2]  integral  4     'b1       
#   WSTRB[3]  integral  4     'b1       
#   WSTRB[4]  integral  4     'b1       
#   WSTRB[5]  integral  4     'b1       
#   WSTRB[6]  integral  4     'b1       
#   WSTRB[7]  integral  4     'b1       
#   BRESP     integral  2     'd0       
#   ARADDR    integral  32    'd0       
#   ARVALID   integral  1     'd0       
#   ARLEN     integral  4     'd0       
#   ARSIZE    integral  3     'd0       
#   ARBURST   integral  2     'd0       
#   RRESP     integral  2     'd0       
# --------------------------------------
#  slave_monitor --------------------------------------
# Name        Type      Size  Value     
# --------------------------------------
# m_xtn       axi_xtn   -     @1317     
#   AWADDR    integral  32    2946372740
#   waddr[0]  integral  32    2946372740
#   waddr[1]  integral  32    2946372740
#   waddr[2]  integral  32    2946372740
#   waddr[3]  integral  32    2946372740
#   waddr[4]  integral  32    2946372740
#   waddr[5]  integral  32    2946372740
#   waddr[6]  integral  32    2946372740
#   waddr[7]  integral  32    2946372740
#   AWLEN     integral  4     'd7       
#   AWSIZE    integral  3     'd0       
#   AWBURST   integral  2     'd0       
#   WDATA[0]  integral  32    'd126     
#   WDATA[1]  integral  32    'd130     
#   WDATA[2]  integral  32    'd100     
#   WDATA[3]  integral  32    'd123     
#   WDATA[4]  integral  32    'd191     
#   WDATA[5]  integral  32    'd73      
#   WDATA[6]  integral  32    'd45      
#   WDATA[7]  integral  32    'd182     
#   WSTRB[0]  integral  4     'b1       
#   WSTRB[1]  integral  4     'b1       
#   WSTRB[2]  integral  4     'b1       
#   WSTRB[3]  integral  4     'b1       
#   WSTRB[4]  integral  4     'b1       
#   WSTRB[5]  integral  4     'b1       
#   WSTRB[6]  integral  4     'b1       
#   WSTRB[7]  integral  4     'b1       
#   BRESP     integral  2     'd0       
#   ARADDR    integral  32    'd0       
#   ARVALID   integral  1     'd0       
#   ARLEN     integral  4     'd0       
#   ARSIZE    integral  3     'd0       
#   ARBURST   integral  2     'd0       
#   RRESP     integral  2     'd0       
# --------------------------------------
#  
# UVM_INFO ../tb/score_board.sv(95) @ 3855: uvm_test_top.envh.sb [score_board] master and slave data matched
# UVM_INFO ../tb/score_board.sv(87) @ 3905: uvm_test_top.envh.sb [score_board] master_monitor --------------------------------------
# Name        Type      Size  Value     
# --------------------------------------
# rxtn        axi_xtn   -     @1477     
#   AWADDR    integral  32    'd0       
#   AWLEN     integral  4     'd0       
#   AWSIZE    integral  3     'd0       
#   AWBURST   integral  2     'd0       
#   BRESP     integral  2     'd0       
#   ARADDR    integral  32    4075813239
#   raddr[0]  integral  32    4075813239
#   raddr[1]  integral  32    4075813239
#   raddr[2]  integral  32    4075813239
#   raddr[3]  integral  32    4075813239
#   raddr[4]  integral  32    4075813239
#   ARVALID   integral  1     1         
#   ARLEN     integral  4     'd4       
#   ARSIZE    integral  3     'd1       
#   ARBURST   integral  2     'd0       
#   RDATA[0]  integral  32    'd196     
#   RDATA[1]  integral  32    'd117     
#   RDATA[2]  integral  32    'd91      
#   RDATA[3]  integral  32    'd99      
#   RDATA[4]  integral  32    'd87      
#   RRESP     integral  2     'd0       
# --------------------------------------
#  slave_monitor --------------------------------------
# Name        Type      Size  Value     
# --------------------------------------
# rxtn        axi_xtn   -     @1481     
#   AWADDR    integral  32    'd0       
#   AWLEN     integral  4     'd0       
#   AWSIZE    integral  3     'd0       
#   AWBURST   integral  2     'd0       
#   BRESP     integral  2     'd0       
#   ARADDR    integral  32    4075813239
#   raddr[0]  integral  32    4075813239
#   raddr[1]  integral  32    4075813239
#   raddr[2]  integral  32    4075813239
#   raddr[3]  integral  32    4075813239
#   raddr[4]  integral  32    4075813239
#   ARVALID   integral  1     1         
#   ARLEN     integral  4     'd4       
#   ARSIZE    integral  3     'd1       
#   ARBURST   integral  2     'd0       
#   RDATA[0]  integral  32    'd196     
#   RDATA[1]  integral  32    'd117     
#   RDATA[2]  integral  32    'd91      
#   RDATA[3]  integral  32    'd99      
#   RDATA[4]  integral  32    'd87      
#   RRESP     integral  2     'd0       
# --------------------------------------
#  
# UVM_INFO ../tb/score_board.sv(95) @ 3905: uvm_test_top.envh.sb [score_board] master and slave data matched
# UVM_INFO ../tb/score_board.sv(87) @ 4445: uvm_test_top.envh.sb [score_board] master_monitor ---------------------------------------
# Name        Type      Size  Value      
# ---------------------------------------
# rxtn        axi_xtn   -     @1513      
#   AWADDR    integral  32    'd0        
#   AWLEN     integral  4     'd0        
#   AWSIZE    integral  3     'd0        
#   AWBURST   integral  2     'd0        
#   BRESP     integral  2     'd0        
#   ARADDR    integral  32    'd783570365
#   raddr[0]  integral  32    'd783570365
#   raddr[1]  integral  32    'd783570365
#   raddr[2]  integral  32    'd783570365
#   raddr[3]  integral  32    'd783570365
#   raddr[4]  integral  32    'd783570365
#   raddr[5]  integral  32    'd783570365
#   raddr[6]  integral  32    'd783570365
#   raddr[7]  integral  32    'd783570365
#   ARVALID   integral  1     1          
#   ARLEN     integral  4     'd7        
#   ARSIZE    integral  3     'd1        
#   ARBURST   integral  2     'd0        
#   RDATA[0]  integral  32    'd29954    
#   RDATA[1]  integral  32    'd4061     
#   RDATA[2]  integral  32    'd55194    
#   RDATA[3]  integral  32    'd38846    
#   RDATA[4]  integral  32    'd62017    
#   RDATA[5]  integral  32    'd62037    
#   RDATA[6]  integral  32    'd52320    
#   RDATA[7]  integral  32    'd1587     
#   RRESP     integral  2     'd0        
# ---------------------------------------
#  slave_monitor ---------------------------------------
# Name        Type      Size  Value      
# ---------------------------------------
# rxtn        axi_xtn   -     @1517      
#   AWADDR    integral  32    'd0        
#   AWLEN     integral  4     'd0        
#   AWSIZE    integral  3     'd0        
#   AWBURST   integral  2     'd0        
#   BRESP     integral  2     'd0        
#   ARADDR    integral  32    'd783570365
#   raddr[0]  integral  32    'd783570365
#   raddr[1]  integral  32    'd783570365
#   raddr[2]  integral  32    'd783570365
#   raddr[3]  integral  32    'd783570365
#   raddr[4]  integral  32    'd783570365
#   raddr[5]  integral  32    'd783570365
#   raddr[6]  integral  32    'd783570365
#   raddr[7]  integral  32    'd783570365
#   ARVALID   integral  1     1          
#   ARLEN     integral  4     'd7        
#   ARSIZE    integral  3     'd1        
#   ARBURST   integral  2     'd0        
#   RDATA[0]  integral  32    'd29954    
#   RDATA[1]  integral  32    'd4061     
#   RDATA[2]  integral  32    'd55194    
#   RDATA[3]  integral  32    'd38846    
#   RDATA[4]  integral  32    'd62017    
#   RDATA[5]  integral  32    'd62037    
#   RDATA[6]  integral  32    'd52320    
#   RDATA[7]  integral  32    'd1587     
#   RRESP     integral  2     'd0        
# ---------------------------------------
#  
# UVM_INFO ../tb/score_board.sv(95) @ 4445: uvm_test_top.envh.sb [score_board] master and slave data matched
# UVM_INFO ../tb/score_board.sv(87) @ 4465: uvm_test_top.envh.sb [score_board] master_monitor --------------------------------------
# Name        Type      Size  Value     
# --------------------------------------
# m_xtn       axi_xtn   -     @1349     
#   AWADDR    integral  32    3399707311
#   waddr[0]  integral  32    3399707311
#   waddr[1]  integral  32    3399707311
#   waddr[2]  integral  32    3399707311
#   waddr[3]  integral  32    3399707311
#   waddr[4]  integral  32    3399707311
#   waddr[5]  integral  32    3399707311
#   waddr[6]  integral  32    3399707311
#   waddr[7]  integral  32    3399707311
#   AWLEN     integral  4     'd7       
#   AWSIZE    integral  3     'd0       
#   AWBURST   integral  2     'd0       
#   WDATA[0]  integral  32    'd190     
#   WDATA[1]  integral  32    'd193     
#   WDATA[2]  integral  32    'd190     
#   WDATA[3]  integral  32    'd164     
#   WDATA[4]  integral  32    'd137     
#   WDATA[5]  integral  32    'd105     
#   WDATA[6]  integral  32    'd210     
#   WDATA[7]  integral  32    'd141     
#   WSTRB[0]  integral  4     'b1000    
#   WSTRB[1]  integral  4     'b1000    
#   WSTRB[2]  integral  4     'b1000    
#   WSTRB[3]  integral  4     'b1000    
#   WSTRB[4]  integral  4     'b1000    
#   WSTRB[5]  integral  4     'b1000    
#   WSTRB[6]  integral  4     'b1000    
#   WSTRB[7]  integral  4     'b1000    
#   BRESP     integral  2     'd0       
#   ARADDR    integral  32    'd0       
#   ARVALID   integral  1     'd0       
#   ARLEN     integral  4     'd0       
#   ARSIZE    integral  3     'd0       
#   ARBURST   integral  2     'd0       
#   RRESP     integral  2     'd0       
# --------------------------------------
#  slave_monitor --------------------------------------
# Name        Type      Size  Value     
# --------------------------------------
# m_xtn       axi_xtn   -     @1353     
#   AWADDR    integral  32    3399707311
#   waddr[0]  integral  32    3399707311
#   waddr[1]  integral  32    3399707311
#   waddr[2]  integral  32    3399707311
#   waddr[3]  integral  32    3399707311
#   waddr[4]  integral  32    3399707311
#   waddr[5]  integral  32    3399707311
#   waddr[6]  integral  32    3399707311
#   waddr[7]  integral  32    3399707311
#   AWLEN     integral  4     'd7       
#   AWSIZE    integral  3     'd0       
#   AWBURST   integral  2     'd0       
#   WDATA[0]  integral  32    'd190     
#   WDATA[1]  integral  32    'd193     
#   WDATA[2]  integral  32    'd190     
#   WDATA[3]  integral  32    'd164     
#   WDATA[4]  integral  32    'd137     
#   WDATA[5]  integral  32    'd105     
#   WDATA[6]  integral  32    'd210     
#   WDATA[7]  integral  32    'd141     
#   WSTRB[0]  integral  4     'b1000    
#   WSTRB[1]  integral  4     'b1000    
#   WSTRB[2]  integral  4     'b1000    
#   WSTRB[3]  integral  4     'b1000    
#   WSTRB[4]  integral  4     'b1000    
#   WSTRB[5]  integral  4     'b1000    
#   WSTRB[6]  integral  4     'b1000    
#   WSTRB[7]  integral  4     'b1000    
#   BRESP     integral  2     'd0       
#   ARADDR    integral  32    'd0       
#   ARVALID   integral  1     'd0       
#   ARLEN     integral  4     'd0       
#   ARSIZE    integral  3     'd0       
#   ARBURST   integral  2     'd0       
#   RRESP     integral  2     'd0       
# --------------------------------------
#  
# UVM_INFO ../tb/score_board.sv(95) @ 4465: uvm_test_top.envh.sb [score_board] master and slave data matched
# UVM_INFO ../tb/score_board.sv(87) @ 4525: uvm_test_top.envh.sb [score_board] master_monitor ---------------------------------
# Name        Type      Size  Value
# ---------------------------------
# rxtn        axi_xtn   -     @1533
#   AWADDR    integral  32    'd0  
#   AWLEN     integral  4     'd0  
#   AWSIZE    integral  3     'd0  
#   AWBURST   integral  2     'd0  
#   BRESP     integral  2     'd0  
#   ARADDR    integral  32    'd0  
#   raddr[0]  integral  32    'd0  
#   ARVALID   integral  1     'd0  
#   ARLEN     integral  4     'd0  
#   ARSIZE    integral  3     'd0  
#   ARBURST   integral  2     'd0  
#   RDATA[0]  integral  32    'd126
#   RRESP     integral  2     'd0  
# ---------------------------------
#  slave_monitor ---------------------------------
# Name        Type      Size  Value
# ---------------------------------
# rxtn        axi_xtn   -     @1537
#   AWADDR    integral  32    'd0  
#   AWLEN     integral  4     'd0  
#   AWSIZE    integral  3     'd0  
#   AWBURST   integral  2     'd0  
#   BRESP     integral  2     'd0  
#   ARADDR    integral  32    'd0  
#   raddr[0]  integral  32    'd0  
#   ARVALID   integral  1     'd0  
#   ARLEN     integral  4     'd0  
#   ARSIZE    integral  3     'd0  
#   ARBURST   integral  2     'd0  
#   RDATA[0]  integral  32    'd126
#   RRESP     integral  2     'd0  
# ---------------------------------
#  
# UVM_INFO ../tb/score_board.sv(95) @ 4525: uvm_test_top.envh.sb [score_board] master and slave data matched
# UVM_INFO ../tb/score_board.sv(87) @ 4595: uvm_test_top.envh.sb [score_board] master_monitor ----------------------------------------
# Name        Type      Size  Value       
# ----------------------------------------
# m_xtn       axi_xtn   -     @1377       
#   AWADDR    integral  32    'd1733275040
#   waddr[0]  integral  32    'd1733275040
#   waddr[1]  integral  32    'd1733275040
#   waddr[2]  integral  32    'd1733275040
#   AWLEN     integral  4     'd2         
#   AWSIZE    integral  3     'd2         
#   AWBURST   integral  2     'd0         
#   WDATA[0]  integral  32    2509581943  
#   WDATA[1]  integral  32    2488310683  
#   WDATA[2]  integral  32    'd1486743197
#   WSTRB[0]  integral  4     'b1111      
#   WSTRB[1]  integral  4     'b1111      
#   WSTRB[2]  integral  4     'b1111      
#   BRESP     integral  2     'd0         
#   ARADDR    integral  32    'd0         
#   ARVALID   integral  1     'd0         
#   ARLEN     integral  4     'd0         
#   ARSIZE    integral  3     'd0         
#   ARBURST   integral  2     'd0         
#   RRESP     integral  2     'd0         
# ----------------------------------------
#  slave_monitor ----------------------------------------
# Name        Type      Size  Value       
# ----------------------------------------
# m_xtn       axi_xtn   -     @1381       
#   AWADDR    integral  32    'd1733275040
#   waddr[0]  integral  32    'd1733275040
#   waddr[1]  integral  32    'd1733275040
#   waddr[2]  integral  32    'd1733275040
#   AWLEN     integral  4     'd2         
#   AWSIZE    integral  3     'd2         
#   AWBURST   integral  2     'd0         
#   WDATA[0]  integral  32    2509581943  
#   WDATA[1]  integral  32    2488310683  
#   WDATA[2]  integral  32    'd1486743197
#   WSTRB[0]  integral  4     'b1111      
#   WSTRB[1]  integral  4     'b1111      
#   WSTRB[2]  integral  4     'b1111      
#   BRESP     integral  2     'd0         
#   ARADDR    integral  32    'd0         
#   ARVALID   integral  1     'd0         
#   ARLEN     integral  4     'd0         
#   ARSIZE    integral  3     'd0         
#   ARBURST   integral  2     'd0         
#   RRESP     integral  2     'd0         
# ----------------------------------------
#  
# UVM_INFO ../tb/score_board.sv(95) @ 4595: uvm_test_top.envh.sb [score_board] master and slave data matched
# UVM_INFO ../tb/score_board.sv(87) @ 5275: uvm_test_top.envh.sb [score_board] master_monitor ---------------------------------------
# Name         Type      Size  Value     
# ---------------------------------------
# m_xtn        axi_xtn   -     @1397     
#   AWADDR     integral  32    3178630943
#   waddr[0]   integral  32    3178630943
#   waddr[1]   integral  32    3178630943
#   waddr[2]   integral  32    3178630943
#   waddr[3]   integral  32    3178630943
#   waddr[4]   integral  32    3178630943
#   waddr[5]   integral  32    3178630943
#   waddr[6]   integral  32    3178630943
#   waddr[7]   integral  32    3178630943
#   waddr[8]   integral  32    3178630943
#   waddr[9]   integral  32    3178630943
#   waddr[10]  integral  32    3178630943
#   AWLEN      integral  4     10        
#   AWSIZE     integral  3     'd0       
#   AWBURST    integral  2     'd0       
#   WDATA[0]   integral  32    'd137     
#   WDATA[1]   integral  32    'd21      
#   WDATA[2]   integral  32    'd175     
#   WDATA[3]   integral  32    'd251     
#   WDATA[4]   integral  32    'd228     
#   WDATA[5]   integral  32    'd49      
#   WDATA[6]   integral  32    'd241     
#   WDATA[7]   integral  32    'd155     
#   WDATA[8]   integral  32    'd247     
#   WDATA[9]   integral  32    'd226     
#   WDATA[10]  integral  32    'd193     
#   WSTRB[0]   integral  4     'b1000    
#   WSTRB[1]   integral  4     'b1000    
#   WSTRB[2]   integral  4     'b1000    
#   WSTRB[3]   integral  4     'b1000    
#   WSTRB[4]   integral  4     'b1000    
#   WSTRB[5]   integral  4     'b1000    
#   WSTRB[6]   integral  4     'b1000    
#   WSTRB[7]   integral  4     'b1000    
#   WSTRB[8]   integral  4     'b1000    
#   WSTRB[9]   integral  4     'b1000    
#   WSTRB[10]  integral  4     'b1000    
#   BRESP      integral  2     'd0       
#   ARADDR     integral  32    'd0       
#   ARVALID    integral  1     'd0       
#   ARLEN      integral  4     'd0       
#   ARSIZE     integral  3     'd0       
#   ARBURST    integral  2     'd0       
#   RRESP      integral  2     'd0       
# ---------------------------------------
#  slave_monitor ---------------------------------------
# Name         Type      Size  Value     
# ---------------------------------------
# m_xtn        axi_xtn   -     @1401     
#   AWADDR     integral  32    3178630943
#   waddr[0]   integral  32    3178630943
#   waddr[1]   integral  32    3178630943
#   waddr[2]   integral  32    3178630943
#   waddr[3]   integral  32    3178630943
#   waddr[4]   integral  32    3178630943
#   waddr[5]   integral  32    3178630943
#   waddr[6]   integral  32    3178630943
#   waddr[7]   integral  32    3178630943
#   waddr[8]   integral  32    3178630943
#   waddr[9]   integral  32    3178630943
#   waddr[10]  integral  32    3178630943
#   AWLEN      integral  4     10        
#   AWSIZE     integral  3     'd0       
#   AWBURST    integral  2     'd0       
#   WDATA[0]   integral  32    'd137     
#   WDATA[1]   integral  32    'd21      
#   WDATA[2]   integral  32    'd175     
#   WDATA[3]   integral  32    'd251     
#   WDATA[4]   integral  32    'd228     
#   WDATA[5]   integral  32    'd49      
#   WDATA[6]   integral  32    'd241     
#   WDATA[7]   integral  32    'd155     
#   WDATA[8]   integral  32    'd247     
#   WDATA[9]   integral  32    'd226     
#   WDATA[10]  integral  32    'd193     
#   WSTRB[0]   integral  4     'b1000    
#   WSTRB[1]   integral  4     'b1000    
#   WSTRB[2]   integral  4     'b1000    
#   WSTRB[3]   integral  4     'b1000    
#   WSTRB[4]   integral  4     'b1000    
#   WSTRB[5]   integral  4     'b1000    
#   WSTRB[6]   integral  4     'b1000    
#   WSTRB[7]   integral  4     'b1000    
#   WSTRB[8]   integral  4     'b1000    
#   WSTRB[9]   integral  4     'b1000    
#   WSTRB[10]  integral  4     'b1000    
#   BRESP      integral  2     'd0       
#   ARADDR     integral  32    'd0       
#   ARVALID    integral  1     'd0       
#   ARLEN      integral  4     'd0       
#   ARSIZE     integral  3     'd0       
#   ARBURST    integral  2     'd0       
#   RRESP      integral  2     'd0       
# ---------------------------------------
#  
# UVM_INFO ../tb/score_board.sv(95) @ 5275: uvm_test_top.envh.sb [score_board] master and slave data matched
# UVM_INFO ../tb/score_board.sv(87) @ 6165: uvm_test_top.envh.sb [score_board] master_monitor -----------------------------------------
# Name         Type      Size  Value       
# -----------------------------------------
# m_xtn        axi_xtn   -     @1425       
#   AWADDR     integral  32    'd1771751570
#   waddr[0]   integral  32    'd1771751570
#   waddr[1]   integral  32    'd1771751570
#   waddr[2]   integral  32    'd1771751570
#   waddr[3]   integral  32    'd1771751570
#   waddr[4]   integral  32    'd1771751570
#   waddr[5]   integral  32    'd1771751570
#   waddr[6]   integral  32    'd1771751570
#   waddr[7]   integral  32    'd1771751570
#   waddr[8]   integral  32    'd1771751570
#   waddr[9]   integral  32    'd1771751570
#   waddr[10]  integral  32    'd1771751570
#   waddr[11]  integral  32    'd1771751570
#   waddr[12]  integral  32    'd1771751570
#   waddr[13]  integral  32    'd1771751570
#   waddr[14]  integral  32    'd1771751570
#   AWLEN      integral  4     14          
#   AWSIZE     integral  3     'd1         
#   AWBURST    integral  2     'd0         
#   WDATA[0]   integral  32    'd1973      
#   WDATA[1]   integral  32    'd6643      
#   WDATA[2]   integral  32    'd59554     
#   WDATA[3]   integral  32    'd5496      
#   WDATA[4]   integral  32    'd5763      
#   WDATA[5]   integral  32    'd39846     
#   WDATA[6]   integral  32    'd30673     
#   WDATA[7]   integral  32    'd25166     
#   WDATA[8]   integral  32    'd26998     
#   WDATA[9]   integral  32    'd11178     
#   WDATA[10]  integral  32    'd18541     
#   WDATA[11]  integral  32    'd56206     
#   WDATA[12]  integral  32    'd27023     
#   WDATA[13]  integral  32    'd1595      
#   WDATA[14]  integral  32    'd51630     
#   WSTRB[0]   integral  4     'b1100      
#   WSTRB[1]   integral  4     'b1100      
#   WSTRB[2]   integral  4     'b1100      
#   WSTRB[3]   integral  4     'b1100      
#   WSTRB[4]   integral  4     'b1100      
#   WSTRB[5]   integral  4     'b1100      
#   WSTRB[6]   integral  4     'b1100      
#   WSTRB[7]   integral  4     'b1100      
#   WSTRB[8]   integral  4     'b1100      
#   WSTRB[9]   integral  4     'b1100      
#   WSTRB[10]  integral  4     'b1100      
#   WSTRB[11]  integral  4     'b1100      
#   WSTRB[12]  integral  4     'b1100      
#   WSTRB[13]  integral  4     'b1100      
#   WSTRB[14]  integral  4     'b1100      
#   BRESP      integral  2     'd0         
#   ARADDR     integral  32    'd0         
#   ARVALID    integral  1     'd0         
#   ARLEN      integral  4     'd0         
#   ARSIZE     integral  3     'd0         
#   ARBURST    integral  2     'd0         
#   RRESP      integral  2     'd0         
# -----------------------------------------
#  slave_monitor -----------------------------------------
# Name         Type      Size  Value       
# -----------------------------------------
# m_xtn        axi_xtn   -     @1429       
#   AWADDR     integral  32    'd1771751570
#   waddr[0]   integral  32    'd1771751570
#   waddr[1]   integral  32    'd1771751570
#   waddr[2]   integral  32    'd1771751570
#   waddr[3]   integral  32    'd1771751570
#   waddr[4]   integral  32    'd1771751570
#   waddr[5]   integral  32    'd1771751570
#   waddr[6]   integral  32    'd1771751570
#   waddr[7]   integral  32    'd1771751570
#   waddr[8]   integral  32    'd1771751570
#   waddr[9]   integral  32    'd1771751570
#   waddr[10]  integral  32    'd1771751570
#   waddr[11]  integral  32    'd1771751570
#   waddr[12]  integral  32    'd1771751570
#   waddr[13]  integral  32    'd1771751570
#   waddr[14]  integral  32    'd1771751570
#   AWLEN      integral  4     14          
#   AWSIZE     integral  3     'd1         
#   AWBURST    integral  2     'd0         
#   WDATA[0]   integral  32    'd1973      
#   WDATA[1]   integral  32    'd6643      
#   WDATA[2]   integral  32    'd59554     
#   WDATA[3]   integral  32    'd5496      
#   WDATA[4]   integral  32    'd5763      
#   WDATA[5]   integral  32    'd39846     
#   WDATA[6]   integral  32    'd30673     
#   WDATA[7]   integral  32    'd25166     
#   WDATA[8]   integral  32    'd26998     
#   WDATA[9]   integral  32    'd11178     
#   WDATA[10]  integral  32    'd18541     
#   WDATA[11]  integral  32    'd56206     
#   WDATA[12]  integral  32    'd27023     
#   WDATA[13]  integral  32    'd1595      
#   WDATA[14]  integral  32    'd51630     
#   WSTRB[0]   integral  4     'b1100      
#   WSTRB[1]   integral  4     'b1100      
#   WSTRB[2]   integral  4     'b1100      
#   WSTRB[3]   integral  4     'b1100      
#   WSTRB[4]   integral  4     'b1100      
#   WSTRB[5]   integral  4     'b1100      
#   WSTRB[6]   integral  4     'b1100      
#   WSTRB[7]   integral  4     'b1100      
#   WSTRB[8]   integral  4     'b1100      
#   WSTRB[9]   integral  4     'b1100      
#   WSTRB[10]  integral  4     'b1100      
#   WSTRB[11]  integral  4     'b1100      
#   WSTRB[12]  integral  4     'b1100      
#   WSTRB[13]  integral  4     'b1100      
#   WSTRB[14]  integral  4     'b1100      
#   BRESP      integral  2     'd0         
#   ARADDR     integral  32    'd0         
#   ARVALID    integral  1     'd0         
#   ARLEN      integral  4     'd0         
#   ARSIZE     integral  3     'd0         
#   ARBURST    integral  2     'd0         
#   RRESP      integral  2     'd0         
# -----------------------------------------
#  
# UVM_INFO ../tb/score_board.sv(95) @ 6165: uvm_test_top.envh.sb [score_board] master and slave data matched
# UVM_INFO ../tb/score_board.sv(87) @ 6285: uvm_test_top.envh.sb [score_board] master_monitor --------------------------------------
# Name        Type      Size  Value     
# --------------------------------------
# m_xtn       axi_xtn   -     @1453     
#   AWADDR    integral  32    4142942438
#   waddr[0]  integral  32    4142942438
#   waddr[1]  integral  32    4142942438
#   AWLEN     integral  4     'd1       
#   AWSIZE    integral  3     'd2       
#   AWBURST   integral  2     'd0       
#   WDATA[0]  integral  32    'd33750   
#   WDATA[1]  integral  32    'd44130   
#   WSTRB[0]  integral  4     'b1100    
#   WSTRB[1]  integral  4     'b1100    
#   BRESP     integral  2     'd0       
#   ARADDR    integral  32    'd0       
#   ARVALID   integral  1     'd0       
#   ARLEN     integral  4     'd0       
#   ARSIZE    integral  3     'd0       
#   ARBURST   integral  2     'd0       
#   RRESP     integral  2     'd0       
# --------------------------------------
#  slave_monitor --------------------------------------
# Name        Type      Size  Value     
# --------------------------------------
# m_xtn       axi_xtn   -     @1457     
#   AWADDR    integral  32    4142942438
#   waddr[0]  integral  32    4142942438
#   waddr[1]  integral  32    4142942438
#   AWLEN     integral  4     'd1       
#   AWSIZE    integral  3     'd2       
#   AWBURST   integral  2     'd0       
#   WDATA[0]  integral  32    'd33750   
#   WDATA[1]  integral  32    'd44130   
#   WSTRB[0]  integral  4     'b1100    
#   WSTRB[1]  integral  4     'b1100    
#   BRESP     integral  2     'd0       
#   ARADDR    integral  32    'd0       
#   ARVALID   integral  1     'd0       
#   ARLEN     integral  4     'd0       
#   ARSIZE    integral  3     'd0       
#   ARBURST   integral  2     'd0       
#   RRESP     integral  2     'd0       
# --------------------------------------
#  
# UVM_INFO ../tb/score_board.sv(95) @ 6285: uvm_test_top.envh.sb [score_board] master and slave data matched
# UVM_INFO ../tb/score_board.sv(87) @ 7135: uvm_test_top.envh.sb [score_board] master_monitor ---------------------------------------
# Name         Type      Size  Value     
# ---------------------------------------
# m_xtn        axi_xtn   -     @1485     
#   AWADDR     integral  32    3869173578
#   waddr[0]   integral  32    3869173578
#   waddr[1]   integral  32    3869173578
#   waddr[2]   integral  32    3869173578
#   waddr[3]   integral  32    3869173578
#   waddr[4]   integral  32    3869173578
#   waddr[5]   integral  32    3869173578
#   waddr[6]   integral  32    3869173578
#   waddr[7]   integral  32    3869173578
#   waddr[8]   integral  32    3869173578
#   waddr[9]   integral  32    3869173578
#   waddr[10]  integral  32    3869173578
#   waddr[11]  integral  32    3869173578
#   AWLEN      integral  4     11        
#   AWSIZE     integral  3     'd0       
#   AWBURST    integral  2     'd0       
#   WDATA[0]   integral  32    'd221     
#   WDATA[1]   integral  32    'd145     
#   WDATA[2]   integral  32    'd152     
#   WDATA[3]   integral  32    'd79      
#   WDATA[4]   integral  32    'd141     
#   WDATA[5]   integral  32    'd172     
#   WDATA[6]   integral  32    'd152     
#   WDATA[7]   integral  32    'd51      
#   WDATA[8]   integral  32    'd125     
#   WDATA[9]   integral  32    'd90      
#   WDATA[10]  integral  32    'd70      
#   WDATA[11]  integral  32    'd191     
#   WSTRB[0]   integral  4     'b100     
#   WSTRB[1]   integral  4     'b100     
#   WSTRB[2]   integral  4     'b100     
#   WSTRB[3]   integral  4     'b100     
#   WSTRB[4]   integral  4     'b100     
#   WSTRB[5]   integral  4     'b100     
#   WSTRB[6]   integral  4     'b100     
#   WSTRB[7]   integral  4     'b100     
#   WSTRB[8]   integral  4     'b100     
#   WSTRB[9]   integral  4     'b100     
#   WSTRB[10]  integral  4     'b100     
#   WSTRB[11]  integral  4     'b100     
#   BRESP      integral  2     'd0       
#   ARADDR     integral  32    'd0       
#   ARVALID    integral  1     'd0       
#   ARLEN      integral  4     'd0       
#   ARSIZE     integral  3     'd0       
#   ARBURST    integral  2     'd0       
#   RRESP      integral  2     'd0       
# ---------------------------------------
#  slave_monitor ---------------------------------------
# Name         Type      Size  Value     
# ---------------------------------------
# m_xtn        axi_xtn   -     @1489     
#   AWADDR     integral  32    3869173578
#   waddr[0]   integral  32    3869173578
#   waddr[1]   integral  32    3869173578
#   waddr[2]   integral  32    3869173578
#   waddr[3]   integral  32    3869173578
#   waddr[4]   integral  32    3869173578
#   waddr[5]   integral  32    3869173578
#   waddr[6]   integral  32    3869173578
#   waddr[7]   integral  32    3869173578
#   waddr[8]   integral  32    3869173578
#   waddr[9]   integral  32    3869173578
#   waddr[10]  integral  32    3869173578
#   waddr[11]  integral  32    3869173578
#   AWLEN      integral  4     11        
#   AWSIZE     integral  3     'd0       
#   AWBURST    integral  2     'd0       
#   WDATA[0]   integral  32    'd221     
#   WDATA[1]   integral  32    'd145     
#   WDATA[2]   integral  32    'd152     
#   WDATA[3]   integral  32    'd79      
#   WDATA[4]   integral  32    'd141     
#   WDATA[5]   integral  32    'd172     
#   WDATA[6]   integral  32    'd152     
#   WDATA[7]   integral  32    'd51      
#   WDATA[8]   integral  32    'd125     
#   WDATA[9]   integral  32    'd90      
#   WDATA[10]  integral  32    'd70      
#   WDATA[11]  integral  32    'd191     
#   WSTRB[0]   integral  4     'b100     
#   WSTRB[1]   integral  4     'b100     
#   WSTRB[2]   integral  4     'b100     
#   WSTRB[3]   integral  4     'b100     
#   WSTRB[4]   integral  4     'b100     
#   WSTRB[5]   integral  4     'b100     
#   WSTRB[6]   integral  4     'b100     
#   WSTRB[7]   integral  4     'b100     
#   WSTRB[8]   integral  4     'b100     
#   WSTRB[9]   integral  4     'b100     
#   WSTRB[10]  integral  4     'b100     
#   WSTRB[11]  integral  4     'b100     
#   BRESP      integral  2     'd0       
#   ARADDR     integral  32    'd0       
#   ARVALID    integral  1     'd0       
#   ARLEN      integral  4     'd0       
#   ARSIZE     integral  3     'd0       
#   ARBURST    integral  2     'd0       
#   RRESP      integral  2     'd0       
# ---------------------------------------
#  
# UVM_INFO ../tb/score_board.sv(95) @ 7135: uvm_test_top.envh.sb [score_board] master and slave data matched
# UVM_INFO ../tb/score_board.sv(87) @ 7835: uvm_test_top.envh.sb [score_board] master_monitor ---------------------------------------
# Name         Type      Size  Value     
# ---------------------------------------
# m_xtn        axi_xtn   -     @1505     
#   AWADDR     integral  32    2190463401
#   waddr[0]   integral  32    2190463401
#   waddr[1]   integral  32    2190463401
#   waddr[2]   integral  32    2190463401
#   waddr[3]   integral  32    2190463401
#   waddr[4]   integral  32    2190463401
#   waddr[5]   integral  32    2190463401
#   waddr[6]   integral  32    2190463401
#   waddr[7]   integral  32    2190463401
#   waddr[8]   integral  32    2190463401
#   waddr[9]   integral  32    2190463401
#   waddr[10]  integral  32    2190463401
#   AWLEN      integral  4     10        
#   AWSIZE     integral  3     'd2       
#   AWBURST    integral  2     'd0       
#   WDATA[0]   integral  32    'd2832404 
#   WDATA[1]   integral  32    'd1029273 
#   WDATA[2]   integral  32    'd2480472 
#   WDATA[3]   integral  32    'd7940518 
#   WDATA[4]   integral  32    'd6985028 
#   WDATA[5]   integral  32    'd16266810
#   WDATA[6]   integral  32    'd4685024 
#   WDATA[7]   integral  32    'd16072497
#   WDATA[8]   integral  32    'd9751700 
#   WDATA[9]   integral  32    'd4505832 
#   WDATA[10]  integral  32    'd12944153
#   WSTRB[0]   integral  4     'b1110    
#   WSTRB[1]   integral  4     'b1110    
#   WSTRB[2]   integral  4     'b1110    
#   WSTRB[3]   integral  4     'b1110    
#   WSTRB[4]   integral  4     'b1110    
#   WSTRB[5]   integral  4     'b1110    
#   WSTRB[6]   integral  4     'b1110    
#   WSTRB[7]   integral  4     'b1110    
#   WSTRB[8]   integral  4     'b1110    
#   WSTRB[9]   integral  4     'b1110    
#   WSTRB[10]  integral  4     'b1110    
#   BRESP      integral  2     'd0       
#   ARADDR     integral  32    'd0       
#   ARVALID    integral  1     'd0       
#   ARLEN      integral  4     'd0       
#   ARSIZE     integral  3     'd0       
#   ARBURST    integral  2     'd0       
#   RRESP      integral  2     'd0       
# ---------------------------------------
#  slave_monitor ---------------------------------------
# Name         Type      Size  Value     
# ---------------------------------------
# m_xtn        axi_xtn   -     @1509     
#   AWADDR     integral  32    2190463401
#   waddr[0]   integral  32    2190463401
#   waddr[1]   integral  32    2190463401
#   waddr[2]   integral  32    2190463401
#   waddr[3]   integral  32    2190463401
#   waddr[4]   integral  32    2190463401
#   waddr[5]   integral  32    2190463401
#   waddr[6]   integral  32    2190463401
#   waddr[7]   integral  32    2190463401
#   waddr[8]   integral  32    2190463401
#   waddr[9]   integral  32    2190463401
#   waddr[10]  integral  32    2190463401
#   AWLEN      integral  4     10        
#   AWSIZE     integral  3     'd2       
#   AWBURST    integral  2     'd0       
#   WDATA[0]   integral  32    'd2832404 
#   WDATA[1]   integral  32    'd1029273 
#   WDATA[2]   integral  32    'd2480472 
#   WDATA[3]   integral  32    'd7940518 
#   WDATA[4]   integral  32    'd6985028 
#   WDATA[5]   integral  32    'd16266810
#   WDATA[6]   integral  32    'd4685024 
#   WDATA[7]   integral  32    'd16072497
#   WDATA[8]   integral  32    'd9751700 
#   WDATA[9]   integral  32    'd4505832 
#   WDATA[10]  integral  32    'd12944153
#   WSTRB[0]   integral  4     'b1110    
#   WSTRB[1]   integral  4     'b1110    
#   WSTRB[2]   integral  4     'b1110    
#   WSTRB[3]   integral  4     'b1110    
#   WSTRB[4]   integral  4     'b1110    
#   WSTRB[5]   integral  4     'b1110    
#   WSTRB[6]   integral  4     'b1110    
#   WSTRB[7]   integral  4     'b1110    
#   WSTRB[8]   integral  4     'b1110    
#   WSTRB[9]   integral  4     'b1110    
#   WSTRB[10]  integral  4     'b1110    
#   BRESP      integral  2     'd0       
#   ARADDR     integral  32    'd0       
#   ARVALID    integral  1     'd0       
#   ARLEN      integral  4     'd0       
#   ARSIZE     integral  3     'd0       
#   ARBURST    integral  2     'd0       
#   RRESP      integral  2     'd0       
# ---------------------------------------
#  
# UVM_INFO ../tb/score_board.sv(95) @ 7835: uvm_test_top.envh.sb [score_board] master and slave data matched
# UVM_INFO ../tb/score_board.sv(87) @ 8745: uvm_test_top.envh.sb [score_board] master_monitor -----------------------------------------
# Name         Type      Size  Value       
# -----------------------------------------
# m_xtn        axi_xtn   -     @1541       
#   AWADDR     integral  32    'd1796422655
#   waddr[0]   integral  32    'd1796422655
#   waddr[1]   integral  32    'd1796422655
#   waddr[2]   integral  32    'd1796422655
#   waddr[3]   integral  32    'd1796422655
#   waddr[4]   integral  32    'd1796422655
#   waddr[5]   integral  32    'd1796422655
#   waddr[6]   integral  32    'd1796422655
#   waddr[7]   integral  32    'd1796422655
#   waddr[8]   integral  32    'd1796422655
#   waddr[9]   integral  32    'd1796422655
#   waddr[10]  integral  32    'd1796422655
#   waddr[11]  integral  32    'd1796422655
#   waddr[12]  integral  32    'd1796422655
#   waddr[13]  integral  32    'd1796422655
#   AWLEN      integral  4     13          
#   AWSIZE     integral  3     'd0         
#   AWBURST    integral  2     'd0         
#   WDATA[0]   integral  32    'd214       
#   WDATA[1]   integral  32    'd8         
#   WDATA[2]   integral  32    'd217       
#   WDATA[3]   integral  32    'd41        
#   WDATA[4]   integral  32    'd208       
#   WDATA[5]   integral  32    'd19        
#   WDATA[6]   integral  32    'd13        
#   WDATA[7]   integral  32    'd52        
#   WDATA[8]   integral  32    'd49        
#   WDATA[9]   integral  32    'd108       
#   WDATA[10]  integral  32    'd179       
#   WDATA[11]  integral  32    'd229       
#   WDATA[12]  integral  32    'd128       
#   WDATA[13]  integral  32    'd176       
#   WSTRB[0]   integral  4     'b1000      
#   WSTRB[1]   integral  4     'b1000      
#   WSTRB[2]   integral  4     'b1000      
#   WSTRB[3]   integral  4     'b1000      
#   WSTRB[4]   integral  4     'b1000      
#   WSTRB[5]   integral  4     'b1000      
#   WSTRB[6]   integral  4     'b1000      
#   WSTRB[7]   integral  4     'b1000      
#   WSTRB[8]   integral  4     'b1000      
#   WSTRB[9]   integral  4     'b1000      
#   WSTRB[10]  integral  4     'b1000      
#   WSTRB[11]  integral  4     'b1000      
#   WSTRB[12]  integral  4     'b1000      
#   WSTRB[13]  integral  4     'b1000      
#   BRESP      integral  2     'd0         
#   ARADDR     integral  32    'd0         
#   ARVALID    integral  1     'd0         
#   ARLEN      integral  4     'd0         
#   ARSIZE     integral  3     'd0         
#   ARBURST    integral  2     'd0         
#   RRESP      integral  2     'd0         
# -----------------------------------------
#  slave_monitor -----------------------------------------
# Name         Type      Size  Value       
# -----------------------------------------
# m_xtn        axi_xtn   -     @1545       
#   AWADDR     integral  32    'd1796422655
#   waddr[0]   integral  32    'd1796422655
#   waddr[1]   integral  32    'd1796422655
#   waddr[2]   integral  32    'd1796422655
#   waddr[3]   integral  32    'd1796422655
#   waddr[4]   integral  32    'd1796422655
#   waddr[5]   integral  32    'd1796422655
#   waddr[6]   integral  32    'd1796422655
#   waddr[7]   integral  32    'd1796422655
#   waddr[8]   integral  32    'd1796422655
#   waddr[9]   integral  32    'd1796422655
#   waddr[10]  integral  32    'd1796422655
#   waddr[11]  integral  32    'd1796422655
#   waddr[12]  integral  32    'd1796422655
#   waddr[13]  integral  32    'd1796422655
#   AWLEN      integral  4     13          
#   AWSIZE     integral  3     'd0         
#   AWBURST    integral  2     'd0         
#   WDATA[0]   integral  32    'd214       
#   WDATA[1]   integral  32    'd8         
#   WDATA[2]   integral  32    'd217       
#   WDATA[3]   integral  32    'd41        
#   WDATA[4]   integral  32    'd208       
#   WDATA[5]   integral  32    'd19        
#   WDATA[6]   integral  32    'd13        
#   WDATA[7]   integral  32    'd52        
#   WDATA[8]   integral  32    'd49        
#   WDATA[9]   integral  32    'd108       
#   WDATA[10]  integral  32    'd179       
#   WDATA[11]  integral  32    'd229       
#   WDATA[12]  integral  32    'd128       
#   WDATA[13]  integral  32    'd176       
#   WSTRB[0]   integral  4     'b1000      
#   WSTRB[1]   integral  4     'b1000      
#   WSTRB[2]   integral  4     'b1000      
#   WSTRB[3]   integral  4     'b1000      
#   WSTRB[4]   integral  4     'b1000      
#   WSTRB[5]   integral  4     'b1000      
#   WSTRB[6]   integral  4     'b1000      
#   WSTRB[7]   integral  4     'b1000      
#   WSTRB[8]   integral  4     'b1000      
#   WSTRB[9]   integral  4     'b1000      
#   WSTRB[10]  integral  4     'b1000      
#   WSTRB[11]  integral  4     'b1000      
#   WSTRB[12]  integral  4     'b1000      
#   WSTRB[13]  integral  4     'b1000      
#   BRESP      integral  2     'd0         
#   ARADDR     integral  32    'd0         
#   ARVALID    integral  1     'd0         
#   ARLEN      integral  4     'd0         
#   ARSIZE     integral  3     'd0         
#   ARBURST    integral  2     'd0         
#   RRESP      integral  2     'd0         
# -----------------------------------------
#  
# UVM_INFO ../tb/score_board.sv(95) @ 8745: uvm_test_top.envh.sb [score_board] master and slave data matched
# UVM_INFO verilog_src/uvm-1.1d/src/base/uvm_objection.svh(1267) @ 8745: reporter [TEST_DONE] 'run' phase is ready to proceed to the 'extract' phase
# UVM_INFO @ 8745: reporter [UVMTOP] UVM testbench topology:
# --------------------------------------------------------------------
# Name                         Type                        Size  Value
# --------------------------------------------------------------------
# uvm_test_top                 fixed_test                  -     @474 
#   envh                       env                         -     @490 
#     m_uvc                    master_agent_top            -     @498 
#       m_agent[0]             master_agent                -     @629 
#         drvh                 master_driver               -     @656 
#           rsp_port           uvm_analysis_port           -     @671 
#           seq_item_port      uvm_seq_item_pull_port      -     @663 
#         monh                 master_monitor              -     @641 
#           analysis_port      uvm_analysis_port           -     @648 
#         seqrh                master_sequencer            -     @679 
#           rsp_export         uvm_analysis_export         -     @686 
#           seq_item_export    uvm_seq_item_pull_imp       -     @780 
#           arbitration_queue  array                       0     -    
#           lock_queue         array                       0     -    
#           num_last_reqs      integral                    32    'd1  
#           num_last_rsps      integral                    32    'd1  
#     s_uvc                    slave_agent_top             -     @505 
#       s_agent[0]             slave_agent                 -     @796 
#         drvh                 slave_driver                -     @823 
#           rsp_port           uvm_analysis_port           -     @838 
#           seq_item_port      uvm_seq_item_pull_port      -     @830 
#         monh                 slave_monitor               -     @808 
#           analysis_port      uvm_analysis_port           -     @815 
#         seqrh                slave_sequencer             -     @846 
