# vsim -cvgperinstance -vopt -voptargs="+acc" -coverage -sva -c -do "log -r /*; coverage save -onexit mem_cov3; run -all; exit" -wlf wrap_wave.wlf -l test3.log -sv_seed random work.top "+UVM_TESTNAME=wrap_test" 
# Start time: 20:29:28 on Apr 18,2026
# ** Note: (vsim-8009) Loading existing optimized design _opt
# //  Questa Sim-64
# //  Version 2024.1 win64 Feb  1 2024
# //
# // Unpublished work. Copyright 2024 Siemens
# //
# // This material contains trade secrets or otherwise confidential information
# // owned by Siemens Industry Software Inc. or its affiliates (collectively,
# // "SISW"), or its licensors. Access to and use of this information is strictly
# // limited as set forth in the Customer's applicable agreements with SISW.
# //
# // This material may not be copied, distributed, or otherwise disclosed outside
# // of the Customer's facilities without the express written permission of SISW,
# // and may not be used in any way not expressly authorized by SISW.
# //
# Loading sv_std.std
# Loading work.axi(fast)
# Loading mtiUvm.uvm_pkg(fast)
# Loading work.axi_pkg(fast)
# Loading mtiUvm.questa_uvm_pkg(fast)
# Loading work.top(fast)
# Loading work.axi(fast__2)
# Loading C:/questasim64_2024.1/uvm-1.1d\win64\uvm_dpi.dll
# ** Warning: (vsim-8634) Code was not compiled with coverage options.
# Sv_Seed = 1601414546
# log -r /*
#  coverage save -onexit mem_cov3
#  run -all
# ----------------------------------------------------------------
# UVM-1.1d
# (C) 2007-2013 Mentor Graphics Corporation
# (C) 2007-2013 Cadence Design Systems, Inc.
# (C) 2006-2013 Synopsys, Inc.
# (C) 2011-2013 Cypress Semiconductor Corp.
# ----------------------------------------------------------------
# 
#   ***********       IMPORTANT RELEASE NOTES         ************
# 
#   You are using a version of the UVM library that has been compiled
#   with `UVM_NO_DEPRECATED undefined.
#   See http://www.eda.org/svdb/view.php?id=3313 for more details.
# 
#   You are using a version of the UVM library that has been compiled
#   with `UVM_OBJECT_MUST_HAVE_CONSTRUCTOR undefined.
#   See http://www.eda.org/svdb/view.php?id=3770 for more details.
# 
#       (Specify +UVM_NO_RELNOTES to turn off this notice)
# 
# UVM_INFO verilog_src/questa_uvm_pkg-1.2/src/questa_uvm_pkg.sv(277) @ 0: reporter [Questa UVM] QUESTA_UVM-1.2.3
# UVM_INFO verilog_src/questa_uvm_pkg-1.2/src/questa_uvm_pkg.sv(278) @ 0: reporter [Questa UVM]  questa_uvm::init(+struct)
# UVM_INFO @ 0: reporter [RNTST] Running test wrap_test...
# UVM_INFO @ 0: reporter [UVMTOP] UVM testbench topology:
# --------------------------------------------------------------------
# Name                         Type                        Size  Value
# --------------------------------------------------------------------
# uvm_test_top                 wrap_test                   -     @474 
#   envh                       env                         -     @490 
#     m_uvc                    master_agent_top            -     @498 
#       m_agent[0]             master_agent                -     @629 
#         drvh                 master_driver               -     @656 
#           rsp_port           uvm_analysis_port           -     @671 
#           seq_item_port      uvm_seq_item_pull_port      -     @663 
#         monh                 master_monitor              -     @641 
#           analysis_port      uvm_analysis_port           -     @648 
#         seqrh                master_sequencer            -     @679 
#           rsp_export         uvm_analysis_export         -     @686 
#           seq_item_export    uvm_seq_item_pull_imp       -     @780 
#           arbitration_queue  array                       0     -    
#           lock_queue         array                       0     -    
#           num_last_reqs      integral                    32    'd1  
#           num_last_rsps      integral                    32    'd1  
#     s_uvc                    slave_agent_top             -     @505 
#       s_agent[0]             slave_agent                 -     @796 
#         drvh                 slave_driver                -     @823 
#           rsp_port           uvm_analysis_port           -     @838 
#           seq_item_port      uvm_seq_item_pull_port      -     @830 
#         monh                 slave_monitor               -     @808 
#           analysis_port      uvm_analysis_port           -     @815 
#         seqrh                slave_sequencer             -     @846 
#           rsp_export         uvm_analysis_export         -     @853 
#           seq_item_export    uvm_seq_item_pull_imp       -     @947 
#           arbitration_queue  array                       0     -    
#           lock_queue         array                       0     -    
#           num_last_reqs      integral                    32    'd1  
#           num_last_rsps      integral                    32    'd1  
#     sb                       score_board                 -     @512 
#       m_fifo[0]              uvm_tlm_analysis_fifo #(T)  -     @963 
#         analysis_export      uvm_analysis_imp            -     @1002
#         get_ap               uvm_analysis_port           -     @994 
#         get_peek_export      uvm_get_peek_imp            -     @978 
#         put_ap               uvm_analysis_port           -     @986 
#         put_export           uvm_put_imp                 -     @970 
#       s_fifo[0]              uvm_tlm_analysis_fifo #(T)  -     @1010
#         analysis_export      uvm_analysis_imp            -     @1049
#         get_ap               uvm_analysis_port           -     @1041
#         get_peek_export      uvm_get_peek_imp            -     @1025
#         put_ap               uvm_analysis_port           -     @1033
#         put_export           uvm_put_imp                 -     @1017
#     v_seqrh                  virtual_sequencer           -     @519 
#       rsp_export             uvm_analysis_export         -     @526 
#       seq_item_export        uvm_seq_item_pull_imp       -     @620 
#       arbitration_queue      array                       0     -    
#       lock_queue             array                       0     -    
#       num_last_reqs          integral                    32    'd1  
#       num_last_rsps          integral                    32    'd1  
# --------------------------------------------------------------------
# 
# UVM_INFO ../tb/score_board.sv(87) @ 185: uvm_test_top.envh.sb [score_board] master_monitor --------------------------------------
# Name        Type      Size  Value     
# --------------------------------------
# rxtn        axi_xtn   -     @1089     
#   AWADDR    integral  32    'd0       
#   AWLEN     integral  4     'd0       
#   AWSIZE    integral  3     'd0       
#   AWBURST   integral  2     'd0       
#   BRESP     integral  2     'd0       
#   ARADDR    integral  32    3746543592
#   raddr[0]  integral  32    3746543592
#   raddr[1]  integral  32    3746543594
#   ARVALID   integral  1     1         
#   ARLEN     integral  4     'd1       
#   ARSIZE    integral  3     'd1       
#   ARBURST   integral  2     2         
#   RDATA[0]  integral  32    'd13604   
#   RDATA[1]  integral  32    'd49289   
#   RRESP     integral  2     'd0       
# --------------------------------------
#  slave_monitor --------------------------------------
# Name        Type      Size  Value     
# --------------------------------------
# rxtn        axi_xtn   -     @1071     
#   AWADDR    integral  32    'd0       
#   AWLEN     integral  4     'd0       
#   AWSIZE    integral  3     'd0       
#   AWBURST   integral  2     'd0       
#   BRESP     integral  2     'd0       
#   ARADDR    integral  32    3746543592
#   raddr[0]  integral  32    3746543592
#   raddr[1]  integral  32    3746543594
#   ARVALID   integral  1     1         
#   ARLEN     integral  4     'd1       
#   ARSIZE    integral  3     'd1       
#   ARBURST   integral  2     2         
#   RDATA[0]  integral  32    'd13604   
#   RDATA[1]  integral  32    'd49289   
#   RRESP     integral  2     'd0       
# --------------------------------------
#  
# UVM_INFO ../tb/score_board.sv(95) @ 185: uvm_test_top.envh.sb [score_board] master and slave data matched
# UVM_INFO ../tb/score_board.sv(87) @ 305: uvm_test_top.envh.sb [score_board] master_monitor --------------------------------------
# Name        Type      Size  Value     
# --------------------------------------
# rxtn        axi_xtn   -     @1184     
#   AWADDR    integral  32    'd0       
#   AWLEN     integral  4     'd0       
#   AWSIZE    integral  3     'd0       
#   AWBURST   integral  2     'd0       
#   BRESP     integral  2     'd0       
#   ARADDR    integral  32    3836088405
#   raddr[0]  integral  32    3836088405
#   raddr[1]  integral  32    3836088406
#   ARVALID   integral  1     1         
#   ARLEN     integral  4     'd1       
#   ARSIZE    integral  3     'd0       
#   ARBURST   integral  2     2         
#   RDATA[0]  integral  32    'd214     
#   RDATA[1]  integral  32    'd240     
#   RRESP     integral  2     'd0       
# --------------------------------------
#  slave_monitor --------------------------------------
# Name        Type      Size  Value     
# --------------------------------------
# rxtn        axi_xtn   -     @1188     
#   AWADDR    integral  32    'd0       
#   AWLEN     integral  4     'd0       
#   AWSIZE    integral  3     'd0       
#   AWBURST   integral  2     'd0       
#   BRESP     integral  2     'd0       
#   ARADDR    integral  32    3836088405
#   raddr[0]  integral  32    3836088405
#   raddr[1]  integral  32    3836088406
#   ARVALID   integral  1     1         
#   ARLEN     integral  4     'd1       
#   ARSIZE    integral  3     'd0       
#   ARBURST   integral  2     2         
#   RDATA[0]  integral  32    'd214     
#   RDATA[1]  integral  32    'd240     
#   RRESP     integral  2     'd0       
# --------------------------------------
#  
# UVM_INFO ../tb/score_board.sv(95) @ 305: uvm_test_top.envh.sb [score_board] master and slave data matched
# UVM_INFO ../tb/score_board.sv(87) @ 875: uvm_test_top.envh.sb [score_board] master_monitor ---------------------------------------
# Name        Type      Size  Value      
# ---------------------------------------
# rxtn        axi_xtn   -     @1213      
#   AWADDR    integral  32    'd0        
#   AWLEN     integral  4     'd0        
#   AWSIZE    integral  3     'd0        
#   AWBURST   integral  2     'd0        
#   BRESP     integral  2     'd0        
#   ARADDR    integral  32    'd716579650
#   raddr[0]  integral  32    'd716579650
#   raddr[1]  integral  32    'd716579651
#   raddr[2]  integral  32    'd716579652
#   raddr[3]  integral  32    'd716579653
#   raddr[4]  integral  32    'd716579654
#   raddr[5]  integral  32    'd716579655
#   raddr[6]  integral  32    'd716579656
#   raddr[7]  integral  32    'd716579649
#   ARVALID   integral  1     1          
#   ARLEN     integral  4     'd7        
#   ARSIZE    integral  3     'd0        
#   ARBURST   integral  2     2          
#   RDATA[0]  integral  32    'd185      
#   RDATA[1]  integral  32    'd70       
#   RDATA[2]  integral  32    'd101      
#   RDATA[3]  integral  32    'd82       
#   RDATA[4]  integral  32    'd243      
#   RDATA[5]  integral  32    'd6        
#   RDATA[6]  integral  32    'd118      
#   RDATA[7]  integral  32    'd205      
#   RRESP     integral  2     'd0        
# ---------------------------------------
#  slave_monitor ---------------------------------------
# Name        Type      Size  Value      
# ---------------------------------------
# rxtn        axi_xtn   -     @1217      
#   AWADDR    integral  32    'd0        
#   AWLEN     integral  4     'd0        
#   AWSIZE    integral  3     'd0        
#   AWBURST   integral  2     'd0        
#   BRESP     integral  2     'd0        
#   ARADDR    integral  32    'd716579650
#   raddr[0]  integral  32    'd716579650
#   raddr[1]  integral  32    'd716579651
#   raddr[2]  integral  32    'd716579652
#   raddr[3]  integral  32    'd716579653
#   raddr[4]  integral  32    'd716579654
#   raddr[5]  integral  32    'd716579655
#   raddr[6]  integral  32    'd716579656
#   raddr[7]  integral  32    'd716579649
#   ARVALID   integral  1     1          
#   ARLEN     integral  4     'd7        
#   ARSIZE    integral  3     'd0        
#   ARBURST   integral  2     2          
#   RDATA[0]  integral  32    'd185      
#   RDATA[1]  integral  32    'd70       
#   RDATA[2]  integral  32    'd101      
#   RDATA[3]  integral  32    'd82       
#   RDATA[4]  integral  32    'd243      
#   RDATA[5]  integral  32    'd6        
#   RDATA[6]  integral  32    'd118      
#   RDATA[7]  integral  32    'd205      
#   RRESP     integral  2     'd0        
# ---------------------------------------
#  
# UVM_INFO ../tb/score_board.sv(95) @ 875: uvm_test_top.envh.sb [score_board] master and slave data matched
# UVM_INFO ../tb/score_board.sv(87) @ 945: uvm_test_top.envh.sb [score_board] master_monitor ---------------------------------
# Name        Type      Size  Value
# ---------------------------------
# rxtn        axi_xtn   -     @1241
#   AWADDR    integral  32    'd0  
#   AWLEN     integral  4     'd0  
#   AWSIZE    integral  3     'd0  
#   AWBURST   integral  2     'd0  
#   BRESP     integral  2     'd0  
#   ARADDR    integral  32    'd0  
#   raddr[0]  integral  32    'd0  
#   ARVALID   integral  1     'd0  
#   ARLEN     integral  4     'd0  
#   ARSIZE    integral  3     'd0  
#   ARBURST   integral  2     'd0  
#   RDATA[0]  integral  32    'd237
#   RRESP     integral  2     'd0  
# ---------------------------------
#  slave_monitor ---------------------------------
# Name        Type      Size  Value
# ---------------------------------
# rxtn        axi_xtn   -     @1245
#   AWADDR    integral  32    'd0  
#   AWLEN     integral  4     'd0  
#   AWSIZE    integral  3     'd0  
#   AWBURST   integral  2     'd0  
#   BRESP     integral  2     'd0  
#   ARADDR    integral  32    'd0  
#   raddr[0]  integral  32    'd0  
#   ARVALID   integral  1     'd0  
#   ARLEN     integral  4     'd0  
#   ARSIZE    integral  3     'd0  
#   ARBURST   integral  2     'd0  
#   RDATA[0]  integral  32    'd237
#   RRESP     integral  2     'd0  
# ---------------------------------
#  
# UVM_INFO ../tb/score_board.sv(95) @ 945: uvm_test_top.envh.sb [score_board] master and slave data matched
# UVM_INFO ../tb/score_board.sv(87) @ 1025: uvm_test_top.envh.sb [score_board] master_monitor ---------------------------------
# Name        Type      Size  Value
# ---------------------------------
# rxtn        axi_xtn   -     @1265
#   AWADDR    integral  32    'd0  
#   AWLEN     integral  4     'd0  
#   AWSIZE    integral  3     'd0  
#   AWBURST   integral  2     'd0  
#   BRESP     integral  2     'd0  
#   ARADDR    integral  32    'd0  
#   raddr[0]  integral  32    'd0  
#   ARVALID   integral  1     'd0  
#   ARLEN     integral  4     'd0  
#   ARSIZE    integral  3     'd0  
#   ARBURST   integral  2     'd0  
#   RDATA[0]  integral  32    'd140
#   RRESP     integral  2     'd0  
# ---------------------------------
#  slave_monitor ---------------------------------
# Name        Type      Size  Value
# ---------------------------------
# rxtn        axi_xtn   -     @1269
#   AWADDR    integral  32    'd0  
#   AWLEN     integral  4     'd0  
#   AWSIZE    integral  3     'd0  
#   AWBURST   integral  2     'd0  
#   BRESP     integral  2     'd0  
#   ARADDR    integral  32    'd0  
#   raddr[0]  integral  32    'd0  
#   ARVALID   integral  1     'd0  
#   ARLEN     integral  4     'd0  
#   ARSIZE    integral  3     'd0  
#   ARBURST   integral  2     'd0  
#   RDATA[0]  integral  32    'd140
#   RRESP     integral  2     'd0  
# ---------------------------------
#  
# UVM_INFO ../tb/score_board.sv(95) @ 1025: uvm_test_top.envh.sb [score_board] master and slave data matched
# UVM_INFO ../tb/score_board.sv(87) @ 1225: uvm_test_top.envh.sb [score_board] master_monitor ---------------------------------------
# Name         Type      Size  Value     
# ---------------------------------------
# m_xtn        axi_xtn   -     @1085     
#   AWADDR     integral  32    3147398912
#   waddr[0]   integral  32    3147398912
#   waddr[1]   integral  32    3147398913
#   waddr[2]   integral  32    3147398914
#   waddr[3]   integral  32    3147398915
#   waddr[4]   integral  32    3147398916
#   waddr[5]   integral  32    3147398917
#   waddr[6]   integral  32    3147398918
#   waddr[7]   integral  32    3147398919
#   waddr[8]   integral  32    3147398920
#   waddr[9]   integral  32    3147398921
#   waddr[10]  integral  32    3147398922
#   waddr[11]  integral  32    3147398923
#   waddr[12]  integral  32    3147398924
#   waddr[13]  integral  32    3147398925
#   waddr[14]  integral  32    3147398926
#   waddr[15]  integral  32    3147398927
#   AWLEN      integral  4     15        
#   AWSIZE     integral  3     'd0       
#   AWBURST    integral  2     2         
#   WDATA[0]   integral  32    'd70      
#   WDATA[1]   integral  32    'd10      
#   WDATA[2]   integral  32    'd2       
#   WDATA[3]   integral  32    'd138     
#   WDATA[4]   integral  32    'd186     
#   WDATA[5]   integral  32    'd59      
#   WDATA[6]   integral  32    'd1       
#   WDATA[7]   integral  32    'd2       
#   WDATA[8]   integral  32    'd215     
#   WDATA[9]   integral  32    'd230     
#   WDATA[10]  integral  32    'd99      
#   WDATA[11]  integral  32    'd187     
#   WDATA[12]  integral  32    'd189     
#   WDATA[13]  integral  32    'd244     
#   WDATA[14]  integral  32    'd102     
#   WDATA[15]  integral  32    'd67      
#   WSTRB[0]   integral  4     'b1       
#   WSTRB[1]   integral  4     'b10      
#   WSTRB[2]   integral  4     'b100     
#   WSTRB[3]   integral  4     'b1000    
#   WSTRB[4]   integral  4     'b1       
#   WSTRB[5]   integral  4     'b10      
#   WSTRB[6]   integral  4     'b100     
#   WSTRB[7]   integral  4     'b1000    
#   WSTRB[8]   integral  4     'b1       
#   WSTRB[9]   integral  4     'b10      
#   WSTRB[10]  integral  4     'b100     
#   WSTRB[11]  integral  4     'b1000    
#   WSTRB[12]  integral  4     'b1       
#   WSTRB[13]  integral  4     'b10      
#   WSTRB[14]  integral  4     'b100     
#   WSTRB[15]  integral  4     'b1000    
#   BRESP      integral  2     'd0       
#   ARADDR     integral  32    'd0       
#   ARVALID    integral  1     'd0       
#   ARLEN      integral  4     'd0       
#   ARSIZE     integral  3     'd0       
#   ARBURST    integral  2     'd0       
#   RRESP      integral  2     'd0       
# ---------------------------------------
#  slave_monitor ---------------------------------------
# Name         Type      Size  Value     
# ---------------------------------------
# m_xtn        axi_xtn   -     @1067     
#   AWADDR     integral  32    3147398912
#   waddr[0]   integral  32    3147398912
#   waddr[1]   integral  32    3147398913
#   waddr[2]   integral  32    3147398914
#   waddr[3]   integral  32    3147398915
#   waddr[4]   integral  32    3147398916
#   waddr[5]   integral  32    3147398917
#   waddr[6]   integral  32    3147398918
#   waddr[7]   integral  32    3147398919
#   waddr[8]   integral  32    3147398920
#   waddr[9]   integral  32    3147398921
#   waddr[10]  integral  32    3147398922
#   waddr[11]  integral  32    3147398923
#   waddr[12]  integral  32    3147398924
#   waddr[13]  integral  32    3147398925
#   waddr[14]  integral  32    3147398926
#   waddr[15]  integral  32    3147398927
#   AWLEN      integral  4     15        
#   AWSIZE     integral  3     'd0       
#   AWBURST    integral  2     2         
#   WDATA[0]   integral  32    'd70      
#   WDATA[1]   integral  32    'd10      
#   WDATA[2]   integral  32    'd2       
#   WDATA[3]   integral  32    'd138     
#   WDATA[4]   integral  32    'd186     
#   WDATA[5]   integral  32    'd59      
#   WDATA[6]   integral  32    'd1       
#   WDATA[7]   integral  32    'd2       
#   WDATA[8]   integral  32    'd215     
#   WDATA[9]   integral  32    'd230     
#   WDATA[10]  integral  32    'd99      
#   WDATA[11]  integral  32    'd187     
#   WDATA[12]  integral  32    'd189     
#   WDATA[13]  integral  32    'd244     
#   WDATA[14]  integral  32    'd102     
#   WDATA[15]  integral  32    'd67      
#   WSTRB[0]   integral  4     'b1       
#   WSTRB[1]   integral  4     'b10      
#   WSTRB[2]   integral  4     'b100     
#   WSTRB[3]   integral  4     'b1000    
#   WSTRB[4]   integral  4     'b1       
#   WSTRB[5]   integral  4     'b10      
#   WSTRB[6]   integral  4     'b100     
#   WSTRB[7]   integral  4     'b1000    
#   WSTRB[8]   integral  4     'b1       
#   WSTRB[9]   integral  4     'b10      
#   WSTRB[10]  integral  4     'b100     
#   WSTRB[11]  integral  4     'b1000    
#   WSTRB[12]  integral  4     'b1       
#   WSTRB[13]  integral  4     'b10      
#   WSTRB[14]  integral  4     'b100     
#   WSTRB[15]  integral  4     'b1000    
#   BRESP      integral  2     'd0       
#   ARADDR     integral  32    'd0       
#   ARVALID    integral  1     'd0       
#   ARLEN      integral  4     'd0       
#   ARSIZE     integral  3     'd0       
#   ARBURST    integral  2     'd0       
#   RRESP      integral  2     'd0       
# ---------------------------------------
#  
# UVM_INFO ../tb/score_board.sv(95) @ 1225: uvm_test_top.envh.sb [score_board] master and slave data matched
# UVM_INFO ../tb/score_board.sv(87) @ 1295: uvm_test_top.envh.sb [score_board] master_monitor ----------------------------------------
# Name        Type      Size  Value       
# ----------------------------------------
# m_xtn       axi_xtn   -     @1176       
#   AWADDR    integral  32    'd2124156992
#   waddr[0]  integral  32    'd2124156992
#   waddr[1]  integral  32    'd2124156996
#   AWLEN     integral  4     'd1         
#   AWSIZE    integral  3     'd2         
#   AWBURST   integral  2     2           
#   WDATA[0]  integral  32    'd1243531258
#   WDATA[1]  integral  32    3521424218  
#   WSTRB[0]  integral  4     'b1111      
#   WSTRB[1]  integral  4     'b1111      
#   BRESP     integral  2     'd0         
#   ARADDR    integral  32    'd0         
#   ARVALID   integral  1     'd0         
#   ARLEN     integral  4     'd0         
#   ARSIZE    integral  3     'd0         
#   ARBURST   integral  2     'd0         
#   RRESP     integral  2     'd0         
# ----------------------------------------
#  slave_monitor ----------------------------------------
# Name        Type      Size  Value       
# ----------------------------------------
# m_xtn       axi_xtn   -     @1180       
#   AWADDR    integral  32    'd2124156992
#   waddr[0]  integral  32    'd2124156992
#   waddr[1]  integral  32    'd2124156996
#   AWLEN     integral  4     'd1         
#   AWSIZE    integral  3     'd2         
#   AWBURST   integral  2     2           
#   WDATA[0]  integral  32    'd1243531258
#   WDATA[1]  integral  32    3521424218  
#   WSTRB[0]  integral  4     'b1111      
#   WSTRB[1]  integral  4     'b1111      
#   BRESP     integral  2     'd0         
#   ARADDR    integral  32    'd0         
#   ARVALID   integral  1     'd0         
#   ARLEN     integral  4     'd0         
#   ARSIZE    integral  3     'd0         
#   ARBURST   integral  2     'd0         
#   RRESP     integral  2     'd0         
# ----------------------------------------
#  
# UVM_INFO ../tb/score_board.sv(95) @ 1295: uvm_test_top.envh.sb [score_board] master and slave data matched
# UVM_INFO ../tb/score_board.sv(87) @ 1325: uvm_test_top.envh.sb [score_board] master_monitor --------------------------------------
# Name        Type      Size  Value     
# --------------------------------------
# rxtn        axi_xtn   -     @1285     
#   AWADDR    integral  32    'd0       
#   AWLEN     integral  4     'd0       
#   AWSIZE    integral  3     'd0       
#   AWBURST   integral  2     'd0       
#   BRESP     integral  2     'd0       
#   ARADDR    integral  32    3589116317
#   raddr[0]  integral  32    3589116317
#   raddr[1]  integral  32    3589116318
#   raddr[2]  integral  32    3589116319
#   raddr[3]  integral  32    3589116320
#   ARVALID   integral  1     1         
#   ARLEN     integral  4     'd3       
#   ARSIZE    integral  3     'd0       
#   ARBURST   integral  2     2         
#   RDATA[0]  integral  32    'd233     
#   RDATA[1]  integral  32    'd55      
#   RDATA[2]  integral  32    'd226     
#   RDATA[3]  integral  32    'd170     
#   RRESP     integral  2     'd0       
# --------------------------------------
#  slave_monitor --------------------------------------
# Name        Type      Size  Value     
# --------------------------------------
# rxtn        axi_xtn   -     @1289     
#   AWADDR    integral  32    'd0       
#   AWLEN     integral  4     'd0       
#   AWSIZE    integral  3     'd0       
#   AWBURST   integral  2     'd0       
#   BRESP     integral  2     'd0       
#   ARADDR    integral  32    3589116317
#   raddr[0]  integral  32    3589116317
#   raddr[1]  integral  32    3589116318
#   raddr[2]  integral  32    3589116319
#   raddr[3]  integral  32    3589116320
#   ARVALID   integral  1     1         
#   ARLEN     integral  4     'd3       
#   ARSIZE    integral  3     'd0       
#   ARBURST   integral  2     2         
#   RDATA[0]  integral  32    'd233     
#   RDATA[1]  integral  32    'd55      
#   RDATA[2]  integral  32    'd226     
#   RDATA[3]  integral  32    'd170     
#   RRESP     integral  2     'd0       
# --------------------------------------
#  
# UVM_INFO ../tb/score_board.sv(95) @ 1325: uvm_test_top.envh.sb [score_board] master and slave data matched
# UVM_INFO ../tb/score_board.sv(87) @ 1395: uvm_test_top.envh.sb [score_board] master_monitor ---------------------------------
# Name        Type      Size  Value
# ---------------------------------
# rxtn        axi_xtn   -     @1321
#   AWADDR    integral  32    'd0  
#   AWLEN     integral  4     'd0  
#   AWSIZE    integral  3     'd0  
#   AWBURST   integral  2     'd0  
#   BRESP     integral  2     'd0  
#   ARADDR    integral  32    'd0  
#   raddr[0]  integral  32    'd0  
#   ARVALID   integral  1     'd0  
#   ARLEN     integral  4     'd0  
#   ARSIZE    integral  3     'd0  
#   ARBURST   integral  2     'd0  
#   RDATA[0]  integral  32    'd229
#   RRESP     integral  2     'd0  
# ---------------------------------
#  slave_monitor ---------------------------------
# Name        Type      Size  Value
# ---------------------------------
# rxtn        axi_xtn   -     @1325
#   AWADDR    integral  32    'd0  
#   AWLEN     integral  4     'd0  
#   AWSIZE    integral  3     'd0  
#   AWBURST   integral  2     'd0  
#   BRESP     integral  2     'd0  
#   ARADDR    integral  32    'd0  
#   raddr[0]  integral  32    'd0  
#   ARVALID   integral  1     'd0  
#   ARLEN     integral  4     'd0  
#   ARSIZE    integral  3     'd0  
#   ARBURST   integral  2     'd0  
#   RDATA[0]  integral  32    'd229
#   RRESP     integral  2     'd0  
# ---------------------------------
#  
# UVM_INFO ../tb/score_board.sv(95) @ 1395: uvm_test_top.envh.sb [score_board] master and slave data matched
# UVM_INFO ../tb/score_board.sv(87) @ 1455: uvm_test_top.envh.sb [score_board] master_monitor ---------------------------------
# Name        Type      Size  Value
# ---------------------------------
# rxtn        axi_xtn   -     @1345
#   AWADDR    integral  32    'd0  
#   AWLEN     integral  4     'd0  
#   AWSIZE    integral  3     'd0  
#   AWBURST   integral  2     'd0  
#   BRESP     integral  2     'd0  
#   ARADDR    integral  32    'd0  
#   raddr[0]  integral  32    'd0  
#   ARVALID   integral  1     'd0  
#   ARLEN     integral  4     'd0  
#   ARSIZE    integral  3     'd0  
#   ARBURST   integral  2     'd0  
#   RDATA[0]  integral  32    'd119
#   RRESP     integral  2     'd0  
# ---------------------------------
#  slave_monitor ---------------------------------
# Name        Type      Size  Value
# ---------------------------------
# rxtn        axi_xtn   -     @1349
#   AWADDR    integral  32    'd0  
#   AWLEN     integral  4     'd0  
#   AWSIZE    integral  3     'd0  
#   AWBURST   integral  2     'd0  
#   BRESP     integral  2     'd0  
#   ARADDR    integral  32    'd0  
#   raddr[0]  integral  32    'd0  
#   ARVALID   integral  1     'd0  
#   ARLEN     integral  4     'd0  
#   ARSIZE    integral  3     'd0  
#   ARBURST   integral  2     'd0  
#   RDATA[0]  integral  32    'd119
#   RRESP     integral  2     'd0  
# ---------------------------------
#  
# UVM_INFO ../tb/score_board.sv(95) @ 1455: uvm_test_top.envh.sb [score_board] master and slave data matched
# UVM_INFO ../tb/score_board.sv(87) @ 1505: uvm_test_top.envh.sb [score_board] master_monitor ---------------------------------
# Name        Type      Size  Value
# ---------------------------------
# rxtn        axi_xtn   -     @1365
#   AWADDR    integral  32    'd0  
#   AWLEN     integral  4     'd0  
#   AWSIZE    integral  3     'd0  
#   AWBURST   integral  2     'd0  
#   BRESP     integral  2     'd0  
#   ARADDR    integral  32    'd0  
#   raddr[0]  integral  32    'd0  
#   ARVALID   integral  1     'd0  
#   ARLEN     integral  4     'd0  
#   ARSIZE    integral  3     'd0  
#   ARBURST   integral  2     'd0  
#   RDATA[0]  integral  32    'd18 
#   RRESP     integral  2     'd0  
# ---------------------------------
#  slave_monitor ---------------------------------
# Name        Type      Size  Value
# ---------------------------------
# rxtn        axi_xtn   -     @1369
#   AWADDR    integral  32    'd0  
#   AWLEN     integral  4     'd0  
#   AWSIZE    integral  3     'd0  
#   AWBURST   integral  2     'd0  
#   BRESP     integral  2     'd0  
#   ARADDR    integral  32    'd0  
#   raddr[0]  integral  32    'd0  
#   ARVALID   integral  1     'd0  
#   ARLEN     integral  4     'd0  
#   ARSIZE    integral  3     'd0  
#   ARBURST   integral  2     'd0  
#   RDATA[0]  integral  32    'd18 
#   RRESP     integral  2     'd0  
# ---------------------------------
#  
# UVM_INFO ../tb/score_board.sv(95) @ 1505: uvm_test_top.envh.sb [score_board] master and slave data matched
# UVM_INFO ../tb/score_board.sv(87) @ 1795: uvm_test_top.envh.sb [score_board] master_monitor ----------------------------------------
# Name        Type      Size  Value       
# ----------------------------------------
# m_xtn       axi_xtn   -     @1205       
#   AWADDR    integral  32    4116439408  
#   waddr[0]  integral  32    4116439408  
#   waddr[1]  integral  32    4116439412  
#   waddr[2]  integral  32    4116439416  
#   waddr[3]  integral  32    4116439420  
#   waddr[4]  integral  32    4116439392  
#   waddr[5]  integral  32    4116439396  
#   waddr[6]  integral  32    4116439400  
#   waddr[7]  integral  32    4116439404  
#   AWLEN     integral  4     'd7         
#   AWSIZE    integral  3     'd2         
#   AWBURST   integral  2     2           
#   WDATA[0]  integral  32    'd1346351313
#   WDATA[1]  integral  32    2260986965  
#   WDATA[2]  integral  32    4120158646  
#   WDATA[3]  integral  32    'd664144700 
#   WDATA[4]  integral  32    'd1050433602
#   WDATA[5]  integral  32    2401053421  
#   WDATA[6]  integral  32    4269633388  
#   WDATA[7]  integral  32    'd1141115595
#   WSTRB[0]  integral  4     'b1111      
#   WSTRB[1]  integral  4     'b1111      
#   WSTRB[2]  integral  4     'b1111      
#   WSTRB[3]  integral  4     'b1111      
#   WSTRB[4]  integral  4     'b1111      
#   WSTRB[5]  integral  4     'b1111      
#   WSTRB[6]  integral  4     'b1111      
#   WSTRB[7]  integral  4     'b1111      
#   BRESP     integral  2     'd0         
#   ARADDR    integral  32    'd0         
#   ARVALID   integral  1     'd0         
#   ARLEN     integral  4     'd0         
#   ARSIZE    integral  3     'd0         
#   ARBURST   integral  2     'd0         
#   RRESP     integral  2     'd0         
# ----------------------------------------
#  slave_monitor ----------------------------------------
# Name        Type      Size  Value       
# ----------------------------------------
# m_xtn       axi_xtn   -     @1209       
#   AWADDR    integral  32    4116439408  
#   waddr[0]  integral  32    4116439408  
#   waddr[1]  integral  32    4116439412  
#   waddr[2]  integral  32    4116439416  
#   waddr[3]  integral  32    4116439420  
#   waddr[4]  integral  32    4116439392  
#   waddr[5]  integral  32    4116439396  
#   waddr[6]  integral  32    4116439400  
#   waddr[7]  integral  32    4116439404  
#   AWLEN     integral  4     'd7         
#   AWSIZE    integral  3     'd2         
#   AWBURST   integral  2     2           
#   WDATA[0]  integral  32    'd1346351313
#   WDATA[1]  integral  32    2260986965  
#   WDATA[2]  integral  32    4120158646  
#   WDATA[3]  integral  32    'd664144700 
#   WDATA[4]  integral  32    'd1050433602
#   WDATA[5]  integral  32    2401053421  
#   WDATA[6]  integral  32    4269633388  
#   WDATA[7]  integral  32    'd1141115595
#   WSTRB[0]  integral  4     'b1111      
#   WSTRB[1]  integral  4     'b1111      
#   WSTRB[2]  integral  4     'b1111      
#   WSTRB[3]  integral  4     'b1111      
#   WSTRB[4]  integral  4     'b1111      
#   WSTRB[5]  integral  4     'b1111      
#   WSTRB[6]  integral  4     'b1111      
#   WSTRB[7]  integral  4     'b1111      
#   BRESP     integral  2     'd0         
#   ARADDR    integral  32    'd0         
#   ARVALID   integral  1     'd0         
#   ARLEN     integral  4     'd0         
#   ARSIZE    integral  3     'd0         
#   ARBURST   integral  2     'd0         
#   RRESP     integral  2     'd0         
# ----------------------------------------
#  
# UVM_INFO ../tb/score_board.sv(95) @ 1795: uvm_test_top.envh.sb [score_board] master and slave data matched
# UVM_INFO ../tb/score_board.sv(87) @ 1965: uvm_test_top.envh.sb [score_board] master_monitor ----------------------------------------
# Name        Type      Size  Value       
# ----------------------------------------
# m_xtn       axi_xtn   -     @1233       
#   AWADDR    integral  32    3111120116  
#   waddr[0]  integral  32    3111120116  
#   waddr[1]  integral  32    3111120112  
#   AWLEN     integral  4     'd1         
#   AWSIZE    integral  3     'd2         
#   AWBURST   integral  2     2           
#   WDATA[0]  integral  32    'd310514107 
#   WDATA[1]  integral  32    'd1642193092
#   WSTRB[0]  integral  4     'b1111      
#   WSTRB[1]  integral  4     'b1111      
#   BRESP     integral  2     'd0         
#   ARADDR    integral  32    'd0         
#   ARVALID   integral  1     'd0         
#   ARLEN     integral  4     'd0         
#   ARSIZE    integral  3     'd0         
#   ARBURST   integral  2     'd0         
#   RRESP     integral  2     'd0         
# ----------------------------------------
#  slave_monitor ----------------------------------------
# Name        Type      Size  Value       
# ----------------------------------------
# m_xtn       axi_xtn   -     @1237       
#   AWADDR    integral  32    3111120116  
#   waddr[0]  integral  32    3111120116  
#   waddr[1]  integral  32    3111120112  
#   AWLEN     integral  4     'd1         
#   AWSIZE    integral  3     'd2         
#   AWBURST   integral  2     2           
#   WDATA[0]  integral  32    'd310514107 
#   WDATA[1]  integral  32    'd1642193092
#   WSTRB[0]  integral  4     'b1111      
#   WSTRB[1]  integral  4     'b1111      
#   BRESP     integral  2     'd0         
#   ARADDR    integral  32    'd0         
#   ARVALID   integral  1     'd0         
#   ARLEN     integral  4     'd0         
#   ARSIZE    integral  3     'd0         
#   ARBURST   integral  2     'd0         
#   RRESP     integral  2     'd0         
# ----------------------------------------
#  
# UVM_INFO ../tb/score_board.sv(95) @ 1965: uvm_test_top.envh.sb [score_board] master and slave data matched
# UVM_INFO ../tb/score_board.sv(87) @ 1985: uvm_test_top.envh.sb [score_board] master_monitor --------------------------------------
# Name        Type      Size  Value     
# --------------------------------------
# rxtn        axi_xtn   -     @1397     
#   AWADDR    integral  32    'd0       
#   AWLEN     integral  4     'd0       
#   AWSIZE    integral  3     'd0       
#   AWBURST   integral  2     'd0       
#   BRESP     integral  2     'd0       
#   ARADDR    integral  32    3022546374
#   raddr[0]  integral  32    3022546374
#   raddr[1]  integral  32    3022546375
#   raddr[2]  integral  32    3022546376
#   raddr[3]  integral  32    3022546369
#   raddr[4]  integral  32    3022546370
#   raddr[5]  integral  32    3022546371
#   raddr[6]  integral  32    3022546372
#   raddr[7]  integral  32    3022546373
#   ARVALID   integral  1     1         
#   ARLEN     integral  4     'd7       
#   ARSIZE    integral  3     'd0       
#   ARBURST   integral  2     2         
#   RDATA[0]  integral  32    'd236     
#   RDATA[1]  integral  32    'd121     
#   RDATA[2]  integral  32    'd206     
#   RDATA[3]  integral  32    'd122     
#   RDATA[4]  integral  32    'd202     
#   RDATA[5]  integral  32    'd46      
#   RDATA[6]  integral  32    'd189     
#   RDATA[7]  integral  32    'd88      
#   RRESP     integral  2     'd0       
# --------------------------------------
#  slave_monitor --------------------------------------
# Name        Type      Size  Value     
# --------------------------------------
# rxtn        axi_xtn   -     @1401     
#   AWADDR    integral  32    'd0       
#   AWLEN     integral  4     'd0       
#   AWSIZE    integral  3     'd0       
#   AWBURST   integral  2     'd0       
#   BRESP     integral  2     'd0       
#   ARADDR    integral  32    3022546374
#   raddr[0]  integral  32    3022546374
#   raddr[1]  integral  32    3022546375
#   raddr[2]  integral  32    3022546376
#   raddr[3]  integral  32    3022546369
#   raddr[4]  integral  32    3022546370
#   raddr[5]  integral  32    3022546371
#   raddr[6]  integral  32    3022546372
#   raddr[7]  integral  32    3022546373
#   ARVALID   integral  1     1         
#   ARLEN     integral  4     'd7       
#   ARSIZE    integral  3     'd0       
#   ARBURST   integral  2     2         
#   RDATA[0]  integral  32    'd236     
#   RDATA[1]  integral  32    'd121     
#   RDATA[2]  integral  32    'd206     
#   RDATA[3]  integral  32    'd122     
#   RDATA[4]  integral  32    'd202     
#   RDATA[5]  integral  32    'd46      
#   RDATA[6]  integral  32    'd189     
#   RDATA[7]  integral  32    'd88      
#   RRESP     integral  2     'd0       
# --------------------------------------
#  
# UVM_INFO ../tb/score_board.sv(95) @ 1985: uvm_test_top.envh.sb [score_board] master and slave data matched
# UVM_INFO ../tb/score_board.sv(87) @ 2065: uvm_test_top.envh.sb [score_board] master_monitor ---------------------------------
# Name        Type      Size  Value
# ---------------------------------
# rxtn        axi_xtn   -     @1421
#   AWADDR    integral  32    'd0  
#   AWLEN     integral  4     'd0  
#   AWSIZE    integral  3     'd0  
#   AWBURST   integral  2     'd0  
#   BRESP     integral  2     'd0  
#   ARADDR    integral  32    'd0  
#   raddr[0]  integral  32    'd0  
#   ARVALID   integral  1     'd0  
#   ARLEN     integral  4     'd0  
#   ARSIZE    integral  3     'd0  
#   ARBURST   integral  2     'd0  
#   RDATA[0]  integral  32    'd101
#   RRESP     integral  2     'd0  
# ---------------------------------
#  slave_monitor ---------------------------------
# Name        Type      Size  Value
# ---------------------------------
# rxtn        axi_xtn   -     @1425
#   AWADDR    integral  32    'd0  
#   AWLEN     integral  4     'd0  
#   AWSIZE    integral  3     'd0  
#   AWBURST   integral  2     'd0  
#   BRESP     integral  2     'd0  
#   ARADDR    integral  32    'd0  
#   raddr[0]  integral  32    'd0  
#   ARVALID   integral  1     'd0  
#   ARLEN     integral  4     'd0  
#   ARSIZE    integral  3     'd0  
#   ARBURST   integral  2     'd0  
#   RDATA[0]  integral  32    'd101
#   RRESP     integral  2     'd0  
# ---------------------------------
#  
# UVM_INFO ../tb/score_board.sv(95) @ 2065: uvm_test_top.envh.sb [score_board] master and slave data matched
# UVM_INFO ../tb/score_board.sv(87) @ 2135: uvm_test_top.envh.sb [score_board] master_monitor ---------------------------------
# Name        Type      Size  Value
# ---------------------------------
# rxtn        axi_xtn   -     @1449
#   AWADDR    integral  32    'd0  
#   AWLEN     integral  4     'd0  
#   AWSIZE    integral  3     'd0  
#   AWBURST   integral  2     'd0  
#   BRESP     integral  2     'd0  
#   ARADDR    integral  32    'd0  
#   raddr[0]  integral  32    'd0  
#   ARVALID   integral  1     'd0  
#   ARLEN     integral  4     'd0  
#   ARSIZE    integral  3     'd0  
#   ARBURST   integral  2     'd0  
#   RDATA[0]  integral  32    'd99 
#   RRESP     integral  2     'd0  
# ---------------------------------
#  slave_monitor ---------------------------------
# Name        Type      Size  Value
# ---------------------------------
# rxtn        axi_xtn   -     @1453
#   AWADDR    integral  32    'd0  
#   AWLEN     integral  4     'd0  
#   AWSIZE    integral  3     'd0  
#   AWBURST   integral  2     'd0  
#   BRESP     integral  2     'd0  
#   ARADDR    integral  32    'd0  
#   raddr[0]  integral  32    'd0  
#   ARVALID   integral  1     'd0  
#   ARLEN     integral  4     'd0  
#   ARSIZE    integral  3     'd0  
#   ARBURST   integral  2     'd0  
#   RDATA[0]  integral  32    'd99 
#   RRESP     integral  2     'd0  
# ---------------------------------
#  
# UVM_INFO ../tb/score_board.sv(95) @ 2135: uvm_test_top.envh.sb [score_board] master and slave data matched
# UVM_INFO ../tb/score_board.sv(87) @ 2215: uvm_test_top.envh.sb [score_board] master_monitor ---------------------------------
# Name        Type      Size  Value
# ---------------------------------
# rxtn        axi_xtn   -     @1481
#   AWADDR    integral  32    'd0  
#   AWLEN     integral  4     'd0  
#   AWSIZE    integral  3     'd0  
#   AWBURST   integral  2     'd0  
#   BRESP     integral  2     'd0  
#   ARADDR    integral  32    'd0  
#   raddr[0]  integral  32    'd0  
#   ARVALID   integral  1     'd0  
#   ARLEN     integral  4     'd0  
#   ARSIZE    integral  3     'd0  
#   ARBURST   integral  2     'd0  
#   RDATA[0]  integral  32    'd10 
#   RRESP     integral  2     'd0  
# ---------------------------------
#  slave_monitor ---------------------------------
# Name        Type      Size  Value
# ---------------------------------
# rxtn        axi_xtn   -     @1485
#   AWADDR    integral  32    'd0  
#   AWLEN     integral  4     'd0  
#   AWSIZE    integral  3     'd0  
#   AWBURST   integral  2     'd0  
#   BRESP     integral  2     'd0  
#   ARADDR    integral  32    'd0  
#   raddr[0]  integral  32    'd0  
#   ARVALID   integral  1     'd0  
#   ARLEN     integral  4     'd0  
#   ARSIZE    integral  3     'd0  
#   ARBURST   integral  2     'd0  
#   RDATA[0]  integral  32    'd10 
#   RRESP     integral  2     'd0  
# ---------------------------------
#  
# UVM_INFO ../tb/score_board.sv(95) @ 2215: uvm_test_top.envh.sb [score_board] master and slave data matched
# UVM_INFO ../tb/score_board.sv(87) @ 2725: uvm_test_top.envh.sb [score_board] master_monitor ----------------------------------------
# Name        Type      Size  Value       
# ----------------------------------------
# rxtn        axi_xtn   -     @1513       
#   AWADDR    integral  32    'd0         
#   AWLEN     integral  4     'd0         
#   AWSIZE    integral  3     'd0         
#   AWBURST   integral  2     'd0         
#   BRESP     integral  2     'd0         
#   ARADDR    integral  32    'd2128804994
#   raddr[0]  integral  32    'd2128804994
#   raddr[1]  integral  32    'd2128804996
#   raddr[2]  integral  32    'd2128804998
#   raddr[3]  integral  32    'd2128805000
#   raddr[4]  integral  32    'd2128805002
#   raddr[5]  integral  32    'd2128805004
#   raddr[6]  integral  32    'd2128805006
#   raddr[7]  integral  32    'd2128805008
#   ARVALID   integral  1     1           
#   ARLEN     integral  4     'd7         
#   ARSIZE    integral  3     'd1         
#   ARBURST   integral  2     2           
#   RDATA[0]  integral  32    'd49211     
#   RDATA[1]  integral  32    'd8480      
#   RDATA[2]  integral  32    'd21880     
#   RDATA[3]  integral  32    'd52381     
#   RDATA[4]  integral  32    'd52000     
#   RDATA[5]  integral  32    'd47123     
#   RDATA[6]  integral  32    'd34492     
#   RDATA[7]  integral  32    'd54867     
#   RRESP     integral  2     'd0         
# ----------------------------------------
#  slave_monitor ----------------------------------------
# Name        Type      Size  Value       
# ----------------------------------------
# rxtn        axi_xtn   -     @1517       
#   AWADDR    integral  32    'd0         
#   AWLEN     integral  4     'd0         
#   AWSIZE    integral  3     'd0         
#   AWBURST   integral  2     'd0         
#   BRESP     integral  2     'd0         
#   ARADDR    integral  32    'd2128804994
#   raddr[0]  integral  32    'd2128804994
#   raddr[1]  integral  32    'd2128804996
#   raddr[2]  integral  32    'd2128804998
#   raddr[3]  integral  32    'd2128805000
#   raddr[4]  integral  32    'd2128805002
#   raddr[5]  integral  32    'd2128805004
#   raddr[6]  integral  32    'd2128805006
#   raddr[7]  integral  32    'd2128805008
#   ARVALID   integral  1     1           
#   ARLEN     integral  4     'd7         
#   ARSIZE    integral  3     'd1         
#   ARBURST   integral  2     2           
#   RDATA[0]  integral  32    'd49211     
#   RDATA[1]  integral  32    'd8480      
#   RDATA[2]  integral  32    'd21880     
#   RDATA[3]  integral  32    'd52381     
#   RDATA[4]  integral  32    'd52000     
#   RDATA[5]  integral  32    'd47123     
#   RDATA[6]  integral  32    'd34492     
#   RDATA[7]  integral  32    'd54867     
#   RRESP     integral  2     'd0         
# ----------------------------------------
#  
# UVM_INFO ../tb/score_board.sv(95) @ 2725: uvm_test_top.envh.sb [score_board] master and slave data matched
# UVM_INFO ../tb/score_board.sv(87) @ 2885: uvm_test_top.envh.sb [score_board] master_monitor ---------------------------------------
# Name        Type      Size  Value      
# ---------------------------------------
# rxtn        axi_xtn   -     @1529      
#   AWADDR    integral  32    'd0        
#   AWLEN     integral  4     'd0        
#   AWSIZE    integral  3     'd0        
#   AWBURST   integral  2     'd0        
#   BRESP     integral  2     'd0        
#   ARADDR    integral  32    3220863068 
#   raddr[0]  integral  32    3220863068 
#   raddr[1]  integral  32    3220863072 
#   ARVALID   integral  1     1          
#   ARLEN     integral  4     'd1        
#   ARSIZE    integral  3     'd2        
#   ARBURST   integral  2     2          
#   RDATA[0]  integral  32    'd899669355
#   RDATA[1]  integral  32    3936758485 
#   RRESP     integral  2     'd0        
# ---------------------------------------
#  slave_monitor ---------------------------------------
# Name        Type      Size  Value      
# ---------------------------------------
# rxtn        axi_xtn   -     @1533      
#   AWADDR    integral  32    'd0        
#   AWLEN     integral  4     'd0        
#   AWSIZE    integral  3     'd0        
#   AWBURST   integral  2     'd0        
#   BRESP     integral  2     'd0        
#   ARADDR    integral  32    3220863068 
#   raddr[0]  integral  32    3220863068 
#   raddr[1]  integral  32    3220863072 
#   ARVALID   integral  1     1          
#   ARLEN     integral  4     'd1        
#   ARSIZE    integral  3     'd2        
#   ARBURST   integral  2     2          
#   RDATA[0]  integral  32    'd899669355
#   RDATA[1]  integral  32    3936758485 
#   RRESP     integral  2     'd0        
# ---------------------------------------
#  
# UVM_INFO ../tb/score_board.sv(95) @ 2885: uvm_test_top.envh.sb [score_board] master and slave data matched
# UVM_INFO ../tb/score_board.sv(87) @ 3025: uvm_test_top.envh.sb [score_board] master_monitor -----------------------------------------
# Name         Type      Size  Value       
# -----------------------------------------
# m_xtn        axi_xtn   -     @1257       
#   AWADDR     integral  32    4169051700  
#   waddr[0]   integral  32    4169051700  
#   waddr[1]   integral  32    4169051704  
#   waddr[2]   integral  32    4169051708  
#   waddr[3]   integral  32    4169051648  
#   waddr[4]   integral  32    4169051652  
#   waddr[5]   integral  32    4169051656  
#   waddr[6]   integral  32    4169051660  
#   waddr[7]   integral  32    4169051664  
#   waddr[8]   integral  32    4169051668  
#   waddr[9]   integral  32    4169051672  
#   waddr[10]  integral  32    4169051676  
#   waddr[11]  integral  32    4169051680  
#   waddr[12]  integral  32    4169051684  
#   waddr[13]  integral  32    4169051688  
#   waddr[14]  integral  32    4169051692  
#   waddr[15]  integral  32    4169051696  
#   AWLEN      integral  4     15          
#   AWSIZE     integral  3     'd2         
#   AWBURST    integral  2     2           
#   WDATA[0]   integral  32    'd1096559886
#   WDATA[1]   integral  32    2919752068  
#   WDATA[2]   integral  32    'd1260893468
#   WDATA[3]   integral  32    3782628718  
#   WDATA[4]   integral  32    'd313814485 
#   WDATA[5]   integral  32    'd1008975862
#   WDATA[6]   integral  32    'd205619679 
#   WDATA[7]   integral  32    'd607991018 
#   WDATA[8]   integral  32    'd190584522 
#   WDATA[9]   integral  32    'd713118800 
#   WDATA[10]  integral  32    3681056660  
#   WDATA[11]  integral  32    'd748485210 
#   WDATA[12]  integral  32    3072061703  
#   WDATA[13]  integral  32    3970409402  
#   WDATA[14]  integral  32    'd1844168458
#   WDATA[15]  integral  32    'd344474496 
#   WSTRB[0]   integral  4     'b1111      
#   WSTRB[1]   integral  4     'b1111      
#   WSTRB[2]   integral  4     'b1111      
#   WSTRB[3]   integral  4     'b1111      
#   WSTRB[4]   integral  4     'b1111      
#   WSTRB[5]   integral  4     'b1111      
#   WSTRB[6]   integral  4     'b1111      
#   WSTRB[7]   integral  4     'b1111      
#   WSTRB[8]   integral  4     'b1111      
#   WSTRB[9]   integral  4     'b1111      
#   WSTRB[10]  integral  4     'b1111      
#   WSTRB[11]  integral  4     'b1111      
#   WSTRB[12]  integral  4     'b1111      
#   WSTRB[13]  integral  4     'b1111      
#   WSTRB[14]  integral  4     'b1111      
#   WSTRB[15]  integral  4     'b1111      
#   BRESP      integral  2     'd0         
#   ARADDR     integral  32    'd0         
#   ARVALID    integral  1     'd0         
#   ARLEN      integral  4     'd0         
#   ARSIZE     integral  3     'd0         
#   ARBURST    integral  2     'd0         
#   RRESP      integral  2     'd0         
# -----------------------------------------
#  slave_monitor -----------------------------------------
# Name         Type      Size  Value       
# -----------------------------------------
# m_xtn        axi_xtn   -     @1261       
#   AWADDR     integral  32    4169051700  
#   waddr[0]   integral  32    4169051700  
#   waddr[1]   integral  32    4169051704  
#   waddr[2]   integral  32    4169051708  
#   waddr[3]   integral  32    4169051648  
#   waddr[4]   integral  32    4169051652  
#   waddr[5]   integral  32    4169051656  
#   waddr[6]   integral  32    4169051660  
#   waddr[7]   integral  32    4169051664  
#   waddr[8]   integral  32    4169051668  
#   waddr[9]   integral  32    4169051672  
#   waddr[10]  integral  32    4169051676  
#   waddr[11]  integral  32    4169051680  
#   waddr[12]  integral  32    4169051684  
#   waddr[13]  integral  32    4169051688  
#   waddr[14]  integral  32    4169051692  
#   waddr[15]  integral  32    4169051696  
#   AWLEN      integral  4     15          
#   AWSIZE     integral  3     'd2         
#   AWBURST    integral  2     2           
#   WDATA[0]   integral  32    'd1096559886
#   WDATA[1]   integral  32    2919752068  
#   WDATA[2]   integral  32    'd1260893468
#   WDATA[3]   integral  32    3782628718  
#   WDATA[4]   integral  32    'd313814485 
#   WDATA[5]   integral  32    'd1008975862
#   WDATA[6]   integral  32    'd205619679 
#   WDATA[7]   integral  32    'd607991018 
#   WDATA[8]   integral  32    'd190584522 
#   WDATA[9]   integral  32    'd713118800 
#   WDATA[10]  integral  32    3681056660  
#   WDATA[11]  integral  32    'd748485210 
#   WDATA[12]  integral  32    3072061703  
#   WDATA[13]  integral  32    3970409402  
#   WDATA[14]  integral  32    'd1844168458
#   WDATA[15]  integral  32    'd344474496 
#   WSTRB[0]   integral  4     'b1111      
#   WSTRB[1]   integral  4     'b1111      
#   WSTRB[2]   integral  4     'b1111      
#   WSTRB[3]   integral  4     'b1111      
#   WSTRB[4]   integral  4     'b1111      
#   WSTRB[5]   integral  4     'b1111      
#   WSTRB[6]   integral  4     'b1111      
#   WSTRB[7]   integral  4     'b1111      
#   WSTRB[8]   integral  4     'b1111      
#   WSTRB[9]   integral  4     'b1111      
#   WSTRB[10]  integral  4     'b1111      
#   WSTRB[11]  integral  4     'b1111      
#   WSTRB[12]  integral  4     'b1111      
#   WSTRB[13]  integral  4     'b1111      
#   WSTRB[14]  integral  4     'b1111      
#   WSTRB[15]  integral  4     'b1111      
#   BRESP      integral  2     'd0         
#   ARADDR     integral  32    'd0         
#   ARVALID    integral  1     'd0         
#   ARLEN      integral  4     'd0         
#   ARSIZE     integral  3     'd0         
#   ARBURST    integral  2     'd0         
#   RRESP      integral  2     'd0         
# -----------------------------------------
#  
# UVM_INFO ../tb/score_board.sv(95) @ 3025: uvm_test_top.envh.sb [score_board] master and slave data matched
# UVM_INFO ../tb/score_board.sv(87) @ 3525: uvm_test_top.envh.sb [score_board] master_monitor ----------------------------------------
# Name        Type      Size  Value       
# ----------------------------------------
# m_xtn       axi_xtn   -     @1293       
#   AWADDR    integral  32    'd690693096 
#   waddr[0]  integral  32    'd690693096 
#   waddr[1]  integral  32    'd690693100 
#   waddr[2]  integral  32    'd690693104 
#   waddr[3]  integral  32    'd690693108 
#   waddr[4]  integral  32    'd690693112 
#   waddr[5]  integral  32    'd690693116 
#   waddr[6]  integral  32    'd690693088 
#   waddr[7]  integral  32    'd690693092 
#   AWLEN     integral  4     'd7         
#   AWSIZE    integral  3     'd2         
#   AWBURST   integral  2     2           
#   WDATA[0]  integral  32    'd888748000 
#   WDATA[1]  integral  32    'd431525856 
#   WDATA[2]  integral  32    'd390890214 
#   WDATA[3]  integral  32    'd1880853506
#   WDATA[4]  integral  32    'd981370452 
#   WDATA[5]  integral  32    'd2136648860
#   WDATA[6]  integral  32    2639965095  
#   WDATA[7]  integral  32    3660730894  
#   WSTRB[0]  integral  4     'b1111      
#   WSTRB[1]  integral  4     'b1111      
#   WSTRB[2]  integral  4     'b1111      
#   WSTRB[3]  integral  4     'b1111      
#   WSTRB[4]  integral  4     'b1111      
#   WSTRB[5]  integral  4     'b1111      
#   WSTRB[6]  integral  4     'b1111      
#   WSTRB[7]  integral  4     'b1111      
#   BRESP     integral  2     'd0         
#   ARADDR    integral  32    'd0         
#   ARVALID   integral  1     'd0         
#   ARLEN     integral  4     'd0         
#   ARSIZE    integral  3     'd0         
#   ARBURST   integral  2     'd0         
#   RRESP     integral  2     'd0         
# ----------------------------------------
#  slave_monitor ----------------------------------------
# Name        Type      Size  Value       
# ----------------------------------------
# m_xtn       axi_xtn   -     @1297       
#   AWADDR    integral  32    'd690693096 
#   waddr[0]  integral  32    'd690693096 
#   waddr[1]  integral  32    'd690693100 
#   waddr[2]  integral  32    'd690693104 
#   waddr[3]  integral  32    'd690693108 
#   waddr[4]  integral  32    'd690693112 
#   waddr[5]  integral  32    'd690693116 
#   waddr[6]  integral  32    'd690693088 
#   waddr[7]  integral  32    'd690693092 
#   AWLEN     integral  4     'd7         
#   AWSIZE    integral  3     'd2         
#   AWBURST   integral  2     2           
#   WDATA[0]  integral  32    'd888748000 
#   WDATA[1]  integral  32    'd431525856 
#   WDATA[2]  integral  32    'd390890214 
#   WDATA[3]  integral  32    'd1880853506
#   WDATA[4]  integral  32    'd981370452 
#   WDATA[5]  integral  32    'd2136648860
#   WDATA[6]  integral  32    2639965095  
#   WDATA[7]  integral  32    3660730894  
#   WSTRB[0]  integral  4     'b1111      
#   WSTRB[1]  integral  4     'b1111      
#   WSTRB[2]  integral  4     'b1111      
#   WSTRB[3]  integral  4     'b1111      
#   WSTRB[4]  integral  4     'b1111      
#   WSTRB[5]  integral  4     'b1111      
#   WSTRB[6]  integral  4     'b1111      
#   WSTRB[7]  integral  4     'b1111      
#   BRESP     integral  2     'd0         
#   ARADDR    integral  32    'd0         
#   ARVALID   integral  1     'd0         
#   ARLEN     integral  4     'd0         
#   ARSIZE    integral  3     'd0         
#   ARBURST   integral  2     'd0         
#   RRESP     integral  2     'd0         
# ----------------------------------------
#  
# UVM_INFO ../tb/score_board.sv(95) @ 3525: uvm_test_top.envh.sb [score_board] master and slave data matched
# UVM_INFO ../tb/score_board.sv(87) @ 4075: uvm_test_top.envh.sb [score_board] master_monitor --------------------------------------
# Name        Type      Size  Value     
# --------------------------------------
# m_xtn       axi_xtn   -     @1313     
#   AWADDR    integral  32    3176882506
#   waddr[0]  integral  32    3176882506
#   waddr[1]  integral  32    3176882507
#   waddr[2]  integral  32    3176882508
#   waddr[3]  integral  32    3176882509
#   waddr[4]  integral  32    3176882510
#   waddr[5]  integral  32    3176882511
#   waddr[6]  integral  32    3176882504
#   waddr[7]  integral  32    3176882505
#   AWLEN     integral  4     'd7       
#   AWSIZE    integral  3     'd0       
#   AWBURST   integral  2     2         
#   WDATA[0]  integral  32    'd194     
#   WDATA[1]  integral  32    'd232     
#   WDATA[2]  integral  32    'd203     
#   WDATA[3]  integral  32    'd85      
#   WDATA[4]  integral  32    'd194     
#   WDATA[5]  integral  32    'd173     
#   WDATA[6]  integral  32    'd184     
#   WDATA[7]  integral  32    'd113     
#   WSTRB[0]  integral  4     'b100     
#   WSTRB[1]  integral  4     'b1000    
#   WSTRB[2]  integral  4     'b1       
#   WSTRB[3]  integral  4     'b10      
#   WSTRB[4]  integral  4     'b100     
#   WSTRB[5]  integral  4     'b1000    
#   WSTRB[6]  integral  4     'b1       
#   WSTRB[7]  integral  4     'b10      
#   BRESP     integral  2     'd0       
#   ARADDR    integral  32    'd0       
#   ARVALID   integral  1     'd0       
#   ARLEN     integral  4     'd0       
#   ARSIZE    integral  3     'd0       
#   ARBURST   integral  2     'd0       
#   RRESP     integral  2     'd0       
# --------------------------------------
#  slave_monitor --------------------------------------
# Name        Type      Size  Value     
# --------------------------------------
# m_xtn       axi_xtn   -     @1317     
#   AWADDR    integral  32    3176882506
#   waddr[0]  integral  32    3176882506
#   waddr[1]  integral  32    3176882507
#   waddr[2]  integral  32    3176882508
#   waddr[3]  integral  32    3176882509
#   waddr[4]  integral  32    3176882510
#   waddr[5]  integral  32    3176882511
#   waddr[6]  integral  32    3176882504
#   waddr[7]  integral  32    3176882505
#   AWLEN     integral  4     'd7       
#   AWSIZE    integral  3     'd0       
#   AWBURST   integral  2     2         
#   WDATA[0]  integral  32    'd194     
#   WDATA[1]  integral  32    'd232     
#   WDATA[2]  integral  32    'd203     
#   WDATA[3]  integral  32    'd85      
#   WDATA[4]  integral  32    'd194     
#   WDATA[5]  integral  32    'd173     
#   WDATA[6]  integral  32    'd184     
#   WDATA[7]  integral  32    'd113     
#   WSTRB[0]  integral  4     'b100     
#   WSTRB[1]  integral  4     'b1000    
#   WSTRB[2]  integral  4     'b1       
#   WSTRB[3]  integral  4     'b10      
#   WSTRB[4]  integral  4     'b100     
#   WSTRB[5]  integral  4     'b1000    
#   WSTRB[6]  integral  4     'b1       
#   WSTRB[7]  integral  4     'b10      
#   BRESP     integral  2     'd0       
#   ARADDR    integral  32    'd0       
#   ARVALID   integral  1     'd0       
#   ARLEN     integral  4     'd0       
#   ARSIZE    integral  3     'd0       
#   ARBURST   integral  2     'd0       
#   RRESP     integral  2     'd0       
# --------------------------------------
#  
# UVM_INFO ../tb/score_board.sv(95) @ 4075: uvm_test_top.envh.sb [score_board] master and slave data matched
# UVM_INFO ../tb/score_board.sv(87) @ 4385: uvm_test_top.envh.sb [score_board] master_monitor --------------------------------------
# Name        Type      Size  Value     
# --------------------------------------
# m_xtn       axi_xtn   -     @1337     
#   AWADDR    integral  32    3810065346
#   waddr[0]  integral  32    3810065346
#   waddr[1]  integral  32    3810065348
#   waddr[2]  integral  32    3810065350
#   waddr[3]  integral  32    3810065344
#   AWLEN     integral  4     'd3       
#   AWSIZE    integral  3     'd1       
#   AWBURST   integral  2     2         
#   WDATA[0]  integral  32    'd453     
#   WDATA[1]  integral  32    'd48904   
#   WDATA[2]  integral  32    'd21082   
#   WDATA[3]  integral  32    'd37995   
#   WSTRB[0]  integral  4     'b1100    
#   WSTRB[1]  integral  4     'b11      
#   WSTRB[2]  integral  4     'b1100    
#   WSTRB[3]  integral  4     'b11      
#   BRESP     integral  2     'd0       
#   ARADDR    integral  32    'd0       
#   ARVALID   integral  1     'd0       
#   ARLEN     integral  4     'd0       
#   ARSIZE    integral  3     'd0       
#   ARBURST   integral  2     'd0       
#   RRESP     integral  2     'd0       
# --------------------------------------
#  slave_monitor --------------------------------------
# Name        Type      Size  Value     
# --------------------------------------
# m_xtn       axi_xtn   -     @1341     
#   AWADDR    integral  32    3810065346
#   waddr[0]  integral  32    3810065346
#   waddr[1]  integral  32    3810065348
#   waddr[2]  integral  32    3810065350
#   waddr[3]  integral  32    3810065344
#   AWLEN     integral  4     'd3       
#   AWSIZE    integral  3     'd1       
#   AWBURST   integral  2     2         
#   WDATA[0]  integral  32    'd453     
#   WDATA[1]  integral  32    'd48904   
#   WDATA[2]  integral  32    'd21082   
#   WDATA[3]  integral  32    'd37995   
#   WSTRB[0]  integral  4     'b1100    
#   WSTRB[1]  integral  4     'b11      
#   WSTRB[2]  integral  4     'b1100    
#   WSTRB[3]  integral  4     'b11      
#   BRESP     integral  2     'd0       
#   ARADDR    integral  32    'd0       
#   ARVALID   integral  1     'd0       
#   ARLEN     integral  4     'd0       
#   ARSIZE    integral  3     'd0       
#   ARBURST   integral  2     'd0       
#   RRESP     integral  2     'd0       
# --------------------------------------
#  
# UVM_INFO ../tb/score_board.sv(95) @ 4385: uvm_test_top.envh.sb [score_board] master and slave data matched
# UVM_INFO ../tb/score_board.sv(87) @ 4625: uvm_test_top.envh.sb [score_board] master_monitor ----------------------------------------
# Name        Type      Size  Value       
# ----------------------------------------
# m_xtn       axi_xtn   -     @1373       
#   AWADDR    integral  32    'd1375578830
#   waddr[0]  integral  32    'd1375578830
#   waddr[1]  integral  32    'd1375578824
#   waddr[2]  integral  32    'd1375578826
#   waddr[3]  integral  32    'd1375578828
#   AWLEN     integral  4     'd3         
#   AWSIZE    integral  3     'd1         
#   AWBURST   integral  2     2           
#   WDATA[0]  integral  32    'd41851     
#   WDATA[1]  integral  32    'd49599     
#   WDATA[2]  integral  32    'd47637     
#   WDATA[3]  integral  32    'd43925     
#   WSTRB[0]  integral  4     'b1100      
#   WSTRB[1]  integral  4     'b11        
#   WSTRB[2]  integral  4     'b1100      
#   WSTRB[3]  integral  4     'b11        
#   BRESP     integral  2     'd0         
#   ARADDR    integral  32    'd0         
#   ARVALID   integral  1     'd0         
#   ARLEN     integral  4     'd0         
#   ARSIZE    integral  3     'd0         
#   ARBURST   integral  2     'd0         
#   RRESP     integral  2     'd0         
# ----------------------------------------
#  slave_monitor ----------------------------------------
# Name        Type      Size  Value       
# ----------------------------------------
# m_xtn       axi_xtn   -     @1381       
#   AWADDR    integral  32    'd1375578830
#   waddr[0]  integral  32    'd1375578830
#   waddr[1]  integral  32    'd1375578824
#   waddr[2]  integral  32    'd1375578826
#   waddr[3]  integral  32    'd1375578828
#   AWLEN     integral  4     'd3         
#   AWSIZE    integral  3     'd1         
#   AWBURST   integral  2     2           
#   WDATA[0]  integral  32    'd41851     
#   WDATA[1]  integral  32    'd49599     
#   WDATA[2]  integral  32    'd47637     
#   WDATA[3]  integral  32    'd43925     
#   WSTRB[0]  integral  4     'b1100      
#   WSTRB[1]  integral  4     'b11        
#   WSTRB[2]  integral  4     'b1100      
#   WSTRB[3]  integral  4     'b11        
#   BRESP     integral  2     'd0         
#   ARADDR    integral  32    'd0         
#   ARVALID   integral  1     'd0         
#   ARLEN     integral  4     'd0         
#   ARSIZE    integral  3     'd0         
#   ARBURST   integral  2     'd0         
#   RRESP     integral  2     'd0         
# ----------------------------------------
#  
# UVM_INFO ../tb/score_board.sv(95) @ 4625: uvm_test_top.envh.sb [score_board] master and slave data matched
# UVM_INFO ../tb/score_board.sv(87) @ 5655: uvm_test_top.envh.sb [score_board] master_monitor ---------------------------------------
# Name         Type      Size  Value     
# ---------------------------------------
# m_xtn        axi_xtn   -     @1405     
#   AWADDR     integral  32    3333828878
#   waddr[0]   integral  32    3333828878
#   waddr[1]   integral  32    3333828880
#   waddr[2]   integral  32    3333828882
#   waddr[3]   integral  32    3333828884
#   waddr[4]   integral  32    3333828886
#   waddr[5]   integral  32    3333828888
#   waddr[6]   integral  32    3333828890
#   waddr[7]   integral  32    3333828892
#   waddr[8]   integral  32    3333828894
#   waddr[9]   integral  32    3333828864
#   waddr[10]  integral  32    3333828866
#   waddr[11]  integral  32    3333828868
#   waddr[12]  integral  32    3333828870
#   waddr[13]  integral  32    3333828872
#   waddr[14]  integral  32    3333828874
#   waddr[15]  integral  32    3333828876
#   AWLEN      integral  4     15        
#   AWSIZE     integral  3     'd1       
#   AWBURST    integral  2     2         
#   WDATA[0]   integral  32    'd9763    
#   WDATA[1]   integral  32    'd57403   
#   WDATA[2]   integral  32    'd44094   
#   WDATA[3]   integral  32    'd36398   
#   WDATA[4]   integral  32    'd28511   
#   WDATA[5]   integral  32    'd59784   
#   WDATA[6]   integral  32    'd13859   
#   WDATA[7]   integral  32    'd32477   
#   WDATA[8]   integral  32    'd27768   
#   WDATA[9]   integral  32    'd42612   
#   WDATA[10]  integral  32    'd12387   
#   WDATA[11]  integral  32    'd63361   
#   WDATA[12]  integral  32    'd14917   
#   WDATA[13]  integral  32    'd6382    
#   WDATA[14]  integral  32    'd1089    
#   WDATA[15]  integral  32    'd25462   
#   WSTRB[0]   integral  4     'b1100    
#   WSTRB[1]   integral  4     'b11      
#   WSTRB[2]   integral  4     'b1100    
#   WSTRB[3]   integral  4     'b11      
#   WSTRB[4]   integral  4     'b1100    
#   WSTRB[5]   integral  4     'b11      
#   WSTRB[6]   integral  4     'b1100    
#   WSTRB[7]   integral  4     'b11      
#   WSTRB[8]   integral  4     'b1100    
#   WSTRB[9]   integral  4     'b11      
#   WSTRB[10]  integral  4     'b1100    
#   WSTRB[11]  integral  4     'b11      
#   WSTRB[12]  integral  4     'b1100    
#   WSTRB[13]  integral  4     'b11      
#   WSTRB[14]  integral  4     'b1100    
#   WSTRB[15]  integral  4     'b11      
#   BRESP      integral  2     'd0       
#   ARADDR     integral  32    'd0       
#   ARVALID    integral  1     'd0       
#   ARLEN      integral  4     'd0       
#   ARSIZE     integral  3     'd0       
#   ARBURST    integral  2     'd0       
#   RRESP      integral  2     'd0       
# ---------------------------------------
#  slave_monitor ---------------------------------------
# Name         Type      Size  Value     
# ---------------------------------------
# m_xtn        axi_xtn   -     @1409     
#   AWADDR     integral  32    3333828878
#   waddr[0]   integral  32    3333828878
#   waddr[1]   integral  32    3333828880
#   waddr[2]   integral  32    3333828882
#   waddr[3]   integral  32    3333828884
#   waddr[4]   integral  32    3333828886
#   waddr[5]   integral  32    3333828888
#   waddr[6]   integral  32    3333828890
#   waddr[7]   integral  32    3333828892
#   waddr[8]   integral  32    3333828894
#   waddr[9]   integral  32    3333828864
#   waddr[10]  integral  32    3333828866
#   waddr[11]  integral  32    3333828868
#   waddr[12]  integral  32    3333828870
#   waddr[13]  integral  32    3333828872
#   waddr[14]  integral  32    3333828874
#   waddr[15]  integral  32    3333828876
#   AWLEN      integral  4     15        
#   AWSIZE     integral  3     'd1       
#   AWBURST    integral  2     2         
#   WDATA[0]   integral  32    'd9763    
#   WDATA[1]   integral  32    'd57403   
#   WDATA[2]   integral  32    'd44094   
#   WDATA[3]   integral  32    'd36398   
#   WDATA[4]   integral  32    'd28511   
#   WDATA[5]   integral  32    'd59784   
#   WDATA[6]   integral  32    'd13859   
#   WDATA[7]   integral  32    'd32477   
#   WDATA[8]   integral  32    'd27768   
#   WDATA[9]   integral  32    'd42612   
#   WDATA[10]  integral  32    'd12387   
#   WDATA[11]  integral  32    'd63361   
#   WDATA[12]  integral  32    'd14917   
#   WDATA[13]  integral  32    'd6382    
#   WDATA[14]  integral  32    'd1089    
#   WDATA[15]  integral  32    'd25462   
#   WSTRB[0]   integral  4     'b1100    
#   WSTRB[1]   integral  4     'b11      
#   WSTRB[2]   integral  4     'b1100    
#   WSTRB[3]   integral  4     'b11      
#   WSTRB[4]   integral  4     'b1100    
#   WSTRB[5]   integral  4     'b11      
#   WSTRB[6]   integral  4     'b1100    
#   WSTRB[7]   integral  4     'b11      
#   WSTRB[8]   integral  4     'b1100    
#   WSTRB[9]   integral  4     'b11      
#   WSTRB[10]  integral  4     'b1100    
#   WSTRB[11]  integral  4     'b11      
#   WSTRB[12]  integral  4     'b1100    
#   WSTRB[13]  integral  4     'b11      
#   WSTRB[14]  integral  4     'b1100    
#   WSTRB[15]  integral  4     'b11      
#   BRESP      integral  2     'd0       
#   ARADDR     integral  32    'd0       
#   ARVALID    integral  1     'd0       
#   ARLEN      integral  4     'd0       
#   ARSIZE     integral  3     'd0       
#   ARBURST    integral  2     'd0       
#   RRESP      integral  2     'd0       
# ---------------------------------------
#  
# UVM_INFO ../tb/score_board.sv(95) @ 5655: uvm_test_top.envh.sb [score_board] master and slave data matched
# UVM_INFO ../tb/score_board.sv(87) @ 5775: uvm_test_top.envh.sb [score_board] master_monitor ----------------------------------------
# Name        Type      Size  Value       
# ----------------------------------------
# m_xtn       axi_xtn   -     @1429       
#   AWADDR    integral  32    'd1349102924
#   waddr[0]  integral  32    'd1349102924
#   waddr[1]  integral  32    'd1349102926
#   AWLEN     integral  4     'd1         
#   AWSIZE    integral  3     'd1         
#   AWBURST   integral  2     2           
#   WDATA[0]  integral  32    'd15435     
#   WDATA[1]  integral  32    'd3555      
#   WSTRB[0]  integral  4     'b11        
#   WSTRB[1]  integral  4     'b1100      
#   BRESP     integral  2     'd0         
#   ARADDR    integral  32    'd0         
#   ARVALID   integral  1     'd0         
#   ARLEN     integral  4     'd0         
#   ARSIZE    integral  3     'd0         
#   ARBURST   integral  2     'd0         
#   RRESP     integral  2     'd0         
# ----------------------------------------
#  slave_monitor ----------------------------------------
# Name        Type      Size  Value       
# ----------------------------------------
# m_xtn       axi_xtn   -     @1433       
#   AWADDR    integral  32    'd1349102924
#   waddr[0]  integral  32    'd1349102924
#   waddr[1]  integral  32    'd1349102926
#   AWLEN     integral  4     'd1         
#   AWSIZE    integral  3     'd1         
#   AWBURST   integral  2     2           
#   WDATA[0]  integral  32    'd15435     
#   WDATA[1]  integral  32    'd3555      
#   WSTRB[0]  integral  4     'b11        
#   WSTRB[1]  integral  4     'b1100      
#   BRESP     integral  2     'd0         
#   ARADDR    integral  32    'd0         
#   ARVALID   integral  1     'd0         
#   ARLEN     integral  4     'd0         
#   ARSIZE    integral  3     'd0         
#   ARBURST   integral  2     'd0         
#   RRESP     integral  2     'd0         
# ----------------------------------------
#  
# UVM_INFO ../tb/score_board.sv(95) @ 5775: uvm_test_top.envh.sb [score_board] master and slave data matched
# UVM_INFO ../tb/score_board.sv(87) @ 5895: uvm_test_top.envh.sb [score_board] master_monitor ---------------------------------------
# Name        Type      Size  Value      
# ---------------------------------------
# m_xtn       axi_xtn   -     @1457      
#   AWADDR    integral  32    'd756265144
#   waddr[0]  integral  32    'd756265144
#   waddr[1]  integral  32    'd756265145
#   AWLEN     integral  4     'd1        
#   AWSIZE    integral  3     'd0        
#   AWBURST   integral  2     2          
#   WDATA[0]  integral  32    'd103      
#   WDATA[1]  integral  32    'd128      
#   WSTRB[0]  integral  4     'b1        
#   WSTRB[1]  integral  4     'b10       
#   BRESP     integral  2     'd0        
#   ARADDR    integral  32    'd0        
#   ARVALID   integral  1     'd0        
#   ARLEN     integral  4     'd0        
#   ARSIZE    integral  3     'd0        
#   ARBURST   integral  2     'd0        
#   RRESP     integral  2     'd0        
# ---------------------------------------
#  slave_monitor ---------------------------------------
# Name        Type      Size  Value      
# ---------------------------------------
# m_xtn       axi_xtn   -     @1461      
#   AWADDR    integral  32    'd756265144
#   waddr[0]  integral  32    'd756265144
#   waddr[1]  integral  32    'd756265145
#   AWLEN     integral  4     'd1        
#   AWSIZE    integral  3     'd0        
#   AWBURST   integral  2     2          
#   WDATA[0]  integral  32    'd103      
#   WDATA[1]  integral  32    'd128      
#   WSTRB[0]  integral  4     'b1        
#   WSTRB[1]  integral  4     'b10       
#   BRESP     integral  2     'd0        
#   ARADDR    integral  32    'd0        
#   ARVALID   integral  1     'd0        
#   ARLEN     integral  4     'd0        
#   ARSIZE    integral  3     'd0        
#   ARBURST   integral  2     'd0        
#   RRESP     integral  2     'd0        
# ---------------------------------------
#  
# UVM_INFO ../tb/score_board.sv(95) @ 5895: uvm_test_top.envh.sb [score_board] master and slave data matched
# UVM_INFO ../tb/score_board.sv(87) @ 6205: uvm_test_top.envh.sb [score_board] master_monitor ---------------------------------------
# Name        Type      Size  Value      
# ---------------------------------------
# m_xtn       axi_xtn   -     @1473      
#   AWADDR    integral  32    'd484285844
#   waddr[0]  integral  32    'd484285844
#   waddr[1]  integral  32    'd484285846
#   waddr[2]  integral  32    'd484285840
#   waddr[3]  integral  32    'd484285842
#   AWLEN     integral  4     'd3        
#   AWSIZE    integral  3     'd1        
#   AWBURST   integral  2     2          
#   WDATA[0]  integral  32    'd39219    
#   WDATA[1]  integral  32    'd22058    
#   WDATA[2]  integral  32    'd47396    
#   WDATA[3]  integral  32    'd3625     
#   WSTRB[0]  integral  4     'b11       
#   WSTRB[1]  integral  4     'b1100     
#   WSTRB[2]  integral  4     'b11       
#   WSTRB[3]  integral  4     'b1100     
#   BRESP     integral  2     'd0        
#   ARADDR    integral  32    'd0        
#   ARVALID   integral  1     'd0        
#   ARLEN     integral  4     'd0        
#   ARSIZE    integral  3     'd0        
#   ARBURST   integral  2     'd0        
#   RRESP     integral  2     'd0        
# ---------------------------------------
#  slave_monitor ---------------------------------------
# Name        Type      Size  Value      
# ---------------------------------------
# m_xtn       axi_xtn   -     @1477      
#   AWADDR    integral  32    'd484285844
#   waddr[0]  integral  32    'd484285844
#   waddr[1]  integral  32    'd484285846
#   waddr[2]  integral  32    'd484285840
#   waddr[3]  integral  32    'd484285842
#   AWLEN     integral  4     'd3        
#   AWSIZE    integral  3     'd1        
#   AWBURST   integral  2     2          
#   WDATA[0]  integral  32    'd39219    
#   WDATA[1]  integral  32    'd22058    
#   WDATA[2]  integral  32    'd47396    
#   WDATA[3]  integral  32    'd3625     
#   WSTRB[0]  integral  4     'b11       
#   WSTRB[1]  integral  4     'b1100     
#   WSTRB[2]  integral  4     'b11       
#   WSTRB[3]  integral  4     'b1100     
#   BRESP     integral  2     'd0        
#   ARADDR    integral  32    'd0        
#   ARVALID   integral  1     'd0        
#   ARLEN     integral  4     'd0        
#   ARSIZE    integral  3     'd0        
#   ARBURST   integral  2     'd0        
#   RRESP     integral  2     'd0        
# ---------------------------------------
#  
# UVM_INFO ../tb/score_board.sv(95) @ 6205: uvm_test_top.envh.sb [score_board] master and slave data matched
# UVM_INFO ../tb/score_board.sv(87) @ 6455: uvm_test_top.envh.sb [score_board] master_monitor ----------------------------------------
# Name        Type      Size  Value       
# ----------------------------------------
# m_xtn       axi_xtn   -     @1505       
#   AWADDR    integral  32    2627231968  
#   waddr[0]  integral  32    2627231968  
#   waddr[1]  integral  32    2627231972  
#   waddr[2]  integral  32    2627231976  
#   waddr[3]  integral  32    2627231980  
#   AWLEN     integral  4     'd3         
#   AWSIZE    integral  3     'd2         
#   AWBURST   integral  2     2           
#   WDATA[0]  integral  32    2805493926  
#   WDATA[1]  integral  32    'd1958116120
#   WDATA[2]  integral  32    4005737830  
#   WDATA[3]  integral  32    'd1090244597
#   WSTRB[0]  integral  4     'b1111      
#   WSTRB[1]  integral  4     'b1111      
#   WSTRB[2]  integral  4     'b1111      
#   WSTRB[3]  integral  4     'b1111      
#   BRESP     integral  2     'd0         
#   ARADDR    integral  32    'd0         
#   ARVALID   integral  1     'd0         
#   ARLEN     integral  4     'd0         
#   ARSIZE    integral  3     'd0         
#   ARBURST   integral  2     'd0         
#   RRESP     integral  2     'd0         
# ----------------------------------------
#  slave_monitor ----------------------------------------
# Name        Type      Size  Value       
# ----------------------------------------
# m_xtn       axi_xtn   -     @1509       
#   AWADDR    integral  32    2627231968  
#   waddr[0]  integral  32    2627231968  
#   waddr[1]  integral  32    2627231972  
#   waddr[2]  integral  32    2627231976  
#   waddr[3]  integral  32    2627231980  
#   AWLEN     integral  4     'd3         
#   AWSIZE    integral  3     'd2         
#   AWBURST   integral  2     2           
#   WDATA[0]  integral  32    2805493926  
#   WDATA[1]  integral  32    'd1958116120
#   WDATA[2]  integral  32    4005737830  
#   WDATA[3]  integral  32    'd1090244597
#   WSTRB[0]  integral  4     'b1111      
#   WSTRB[1]  integral  4     'b1111      
#   WSTRB[2]  integral  4     'b1111      
#   WSTRB[3]  integral  4     'b1111      
#   BRESP     integral  2     'd0         
#   ARADDR    integral  32    'd0         
#   ARVALID   integral  1     'd0         
#   ARLEN     integral  4     'd0         
#   ARSIZE    integral  3     'd0         
#   ARBURST   integral  2     'd0         
#   RRESP     integral  2     'd0         
# ----------------------------------------
#  
# UVM_INFO ../tb/score_board.sv(95) @ 6455: uvm_test_top.envh.sb [score_board] master and slave data matched
# UVM_INFO ../tb/score_board.sv(87) @ 6795: uvm_test_top.envh.sb [score_board] master_monitor --------------------------------------
# Name        Type      Size  Value     
# --------------------------------------
# m_xtn       axi_xtn   -     @1537     
#   AWADDR    integral  32    'd40202862
#   waddr[0]  integral  32    'd40202862
#   waddr[1]  integral  32    'd40202856
#   waddr[2]  integral  32    'd40202858
#   waddr[3]  integral  32    'd40202860
#   AWLEN     integral  4     'd3       
#   AWSIZE    integral  3     'd1       
#   AWBURST   integral  2     2         
#   WDATA[0]  integral  32    'd576     
#   WDATA[1]  integral  32    'd18285   
#   WDATA[2]  integral  32    'd16714   
#   WDATA[3]  integral  32    'd33089   
#   WSTRB[0]  integral  4     'b1100    
#   WSTRB[1]  integral  4     'b11      
#   WSTRB[2]  integral  4     'b1100    
#   WSTRB[3]  integral  4     'b11      
#   BRESP     integral  2     'd0       
#   ARADDR    integral  32    'd0       
#   ARVALID   integral  1     'd0       
#   ARLEN     integral  4     'd0       
#   ARSIZE    integral  3     'd0       
#   ARBURST   integral  2     'd0       
#   RRESP     integral  2     'd0       
# --------------------------------------
#  slave_monitor --------------------------------------
# Name        Type      Size  Value     
# --------------------------------------
# m_xtn       axi_xtn   -     @1541     
#   AWADDR    integral  32    'd40202862
#   waddr[0]  integral  32    'd40202862
#   waddr[1]  integral  32    'd40202856
#   waddr[2]  integral  32    'd40202858
#   waddr[3]  integral  32    'd40202860
#   AWLEN     integral  4     'd3       
#   AWSIZE    integral  3     'd1       
#   AWBURST   integral  2     2         
#   WDATA[0]  integral  32    'd576     
#   WDATA[1]  integral  32    'd18285   
#   WDATA[2]  integral  32    'd16714   
#   WDATA[3]  integral  32    'd33089   
#   WSTRB[0]  integral  4     'b1100    
#   WSTRB[1]  integral  4     'b11      
#   WSTRB[2]  integral  4     'b1100    
#   WSTRB[3]  integral  4     'b11      
#   BRESP     integral  2     'd0       
#   ARADDR    integral  32    'd0       
#   ARVALID   integral  1     'd0       
#   ARLEN     integral  4     'd0       
#   ARSIZE    integral  3     'd0       
#   ARBURST   integral  2     'd0       
#   RRESP     integral  2     'd0       
# --------------------------------------
#  
# UVM_INFO ../tb/score_board.sv(95) @ 6795: uvm_test_top.envh.sb [score_board] master and slave data matched
# UVM_INFO verilog_src/uvm-1.1d/src/base/uvm_objection.svh(1267) @ 6795: reporter [TEST_DONE] 'run' phase is ready to proceed to the 'extract' phase
# UVM_INFO @ 6795: reporter [UVMTOP] UVM testbench topology:
# --------------------------------------------------------------------
# Name                         Type                        Size  Value
# --------------------------------------------------------------------
# uvm_test_top                 wrap_test                   -     @474 
#   envh                       env                         -     @490 
#     m_uvc                    master_agent_top            -     @498 
#       m_agent[0]             master_agent                -     @629 
#         drvh                 master_driver               -     @656 
#           rsp_port           uvm_analysis_port           -     @671 
#           seq_item_port      uvm_seq_item_pull_port      -     @663 
#         monh                 master_monitor              -     @641 
#           analysis_port      uvm_analysis_port           -     @648 
#         seqrh                master_sequencer            -     @679 
#           rsp_export         uvm_analysis_export         -     @686 
#           seq_item_export    uvm_seq_item_pull_imp       -     @780 
#           arbitration_queue  array                       0     -    
#           lock_queue         array                       0     -    
#           num_last_reqs      integral                    32    'd1  
#           num_last_rsps      integral                    32    'd1  
#     s_uvc                    slave_agent_top             -     @505 
#       s_agent[0]             slave_agent                 -     @796 
#         drvh                 slave_driver                -     @823 
#           rsp_port           uvm_analysis_port           -     @838 
#           seq_item_port      uvm_seq_item_pull_port      -     @830 
#         monh                 slave_monitor               -     @808 
#           analysis_port      uvm_analysis_port           -     @815 
#         seqrh                slave_sequencer             -     @846 
#           rsp_export         uvm_analysis_export         -     @853 
#           seq_item_export    uvm_seq_item_pull_imp       -     @947 
#           arbitration_queue  array                       0     -    
#           lock_queue         array                       0     -    
#           num_last_reqs      integral                    32    'd1  
#           num_last_rsps      integral                    32    'd1  
#     sb                       score_board                 -     @512 
#       m_fifo[0]              uvm_tlm_analysis_fifo #(T)  -     @963 
#         analysis_export      uvm_analysis_imp            -     @1002
#         get_ap               uvm_analysis_port           -     @994 
#         get_peek_export      uvm_get_peek_imp            -     @978 
#         put_ap               uvm_analysis_port           -     @986 
#         put_export           uvm_put_imp                 -     @970 
#       s_fifo[0]              uvm_tlm_analysis_fifo #(T)  -     @1010
#         analysis_export      uvm_analysis_imp            -     @1049
#         get_ap               uvm_analysis_port           -     @1041
#         get_peek_export      uvm_get_peek_imp            -     @1025
#         put_ap               uvm_analysis_port           -     @1033
#         put_export           uvm_put_imp                 -     @1017
#     v_seqrh                  virtual_sequencer           -     @519 
#       rsp_export             uvm_analysis_export         -     @526 
#       seq_item_export        uvm_seq_item_pull_imp       -     @620 
#       arbitration_queue      array                       0     -    
#       lock_queue             array                       0     -    
#       num_last_reqs          integral                    32    'd1  
#       num_last_rsps          integral                    32    'd1  
# --------------------------------------------------------------------
# 
# UVM_INFO ../tb/score_board.sv(108) @ 6795: uvm_test_top.envh.sb [score_board] 
# 
# ------------------------------------------------------------------
# 
#  master_transactions -> 30
#  slave_transactions  -> 30
#  matched_data        -> 30
#  mismatched_data     -> 0
# 
#  ------------------------------------------------------------------
# 
# --- UVM Report Summary ---
# 
# ** Report counts by severity
# UVM_INFO :   67
# UVM_WARNING :    0
# UVM_ERROR :    0
# UVM_FATAL :    0
# ** Report counts by id
# [Questa UVM]     2
# [RNTST]     1
# [TEST_DONE]     1
# [UVMTOP]     2
# [score_board]    61
# ** Note: $finish    : C:/questasim64_2024.1/win64/../verilog_src/uvm-1.1d/src/base/uvm_root.svh(430)
#    Time: 6795 ns  Iteration: 59  Instance: /top
# Saving coverage database on exit...
# End time: 20:29:30 on Apr 18,2026, Elapsed time: 0:00:02
# Errors: 0, Warnings: 1
